Time [s],Packet ID,Address,Data,Read/Write,ACK/NAK
0.827432000000000,0,'160' (0xA0),'0' (0x00),Write,ACK
0.827456500000000,0,'160' (0xA0),'0' (0x00),Write,ACK
0.838218500000000,1,'160' (0xA0),'255' (0xFF),Read,ACK
0.838242500000000,1,'160' (0xA0),'255' (0xFF),Read,ACK
0.838267000000000,1,'160' (0xA0),'255' (0xFF),Read,ACK
0.838292000000000,1,'160' (0xA0),'255' (0xFF),Read,ACK
0.838316000000000,1,'160' (0xA0),'255' (0xFF),Read,ACK
0.838340500000000,1,'160' (0xA0),'255' (0xFF),Read,NAK
0.839321000000000,2,'160' (0xA0),'11' (0x0B),Write,ACK
0.839345500000000,2,'160' (0xA0),'144' (0x90),Write,ACK
0.850113500000000,3,'160' (0xA0),'149' (0x95),Read,ACK
0.850138000000000,3,'160' (0xA0),'21' (0x15),Read,ACK
0.850162000000000,3,'160' (0xA0),1 (0x31),Read,ACK
0.850187500000000,3,'160' (0xA0),2 (0x32),Read,ACK
0.850211500000000,3,'160' (0xA0),3 (0x33),Read,ACK
0.850236000000000,3,'160' (0xA0),4 (0x34),Read,NAK
0.851147000000000,4,'160' (0xA0),'11' (0x0B),Write,ACK
0.851171500000000,4,'160' (0xA0),'144' (0x90),Write,ACK
0.861933000000000,5,'160' (0xA0),'149' (0x95),Read,ACK
0.861957500000000,5,'160' (0xA0),'21' (0x15),Read,ACK
0.861981500000000,5,'160' (0xA0),1 (0x31),Read,ACK
0.862007000000000,5,'160' (0xA0),2 (0x32),Read,ACK
0.862031000000000,5,'160' (0xA0),3 (0x33),Read,ACK
0.862055000000000,5,'160' (0xA0),4 (0x34),Read,ACK
0.862079500000000,5,'160' (0xA0),'0' (0x00),Read,ACK
0.862104000000000,5,'160' (0xA0),'0' (0x00),Read,ACK
0.862128000000000,5,'160' (0xA0),'149' (0x95),Read,ACK
0.862153000000000,5,'160' (0xA0),'160' (0xA0),Read,ACK
0.862178000000000,5,'160' (0xA0),'5' (0x05),Read,ACK
0.862202500000000,5,'160' (0xA0),'155' (0x9B),Read,ACK
0.862226500000000,5,'160' (0xA0),P (0x50),Read,ACK
0.862250500000000,5,'160' (0xA0),h (0x68),Read,ACK
0.862275000000000,5,'160' (0xA0),i (0x69),Read,ACK
0.862299000000000,5,'160' (0xA0),l (0x6C),Read,ACK
0.862323500000000,5,'160' (0xA0),i (0x69),Read,ACK
0.862348500000000,5,'160' (0xA0),p (0x70),Read,ACK
0.862373000000000,5,'160' (0xA0),s (0x73),Read,ACK
0.862397000000000,5,'160' (0xA0),' ' (0x20),Read,ACK
0.862421500000000,5,'160' (0xA0),' ' (0x20),Read,ACK
0.862445500000000,5,'160' (0xA0),' ' (0x20),Read,ACK
0.862470000000000,5,'160' (0xA0),' ' (0x20),Read,ACK
0.862494500000000,5,'160' (0xA0),' ' (0x20),Read,ACK
0.862518500000000,5,'160' (0xA0),D (0x44),Read,ACK
0.862543000000000,5,'160' (0xA0),U (0x55),Read,ACK
0.862567000000000,5,'160' (0xA0),A (0x41),Read,ACK
0.862591500000000,5,'160' (0xA0),L (0x4C),Read,ACK
0.862615500000000,5,'160' (0xA0),' ' (0x20),Read,ACK
0.862640000000000,5,'160' (0xA0),B (0x42),Read,ACK
0.862664500000000,5,'160' (0xA0),A (0x41),Read,ACK
0.862688500000000,5,'160' (0xA0),N (0x4E),Read,ACK
0.862713000000000,5,'160' (0xA0),D (0x44),Read,ACK
0.862737000000000,5,'160' (0xA0),' ' (0x20),Read,ACK
0.862761500000000,5,'160' (0xA0),' ' (0x20),Read,ACK
0.862785500000000,5,'160' (0xA0),'0' (0x00),Read,ACK
0.862810000000000,5,'160' (0xA0),'0' (0x00),Read,ACK
0.862834000000000,5,'160' (0xA0),'0' (0x00),Read,ACK
0.862858500000000,5,'160' (0xA0),'0' (0x00),Read,ACK
0.862882500000000,5,'160' (0xA0),'0' (0x00),Read,ACK
0.862907000000000,5,'160' (0xA0),'0' (0x00),Read,ACK
0.862931000000000,5,'160' (0xA0),'0' (0x00),Read,ACK
0.862955500000000,5,'160' (0xA0),'0' (0x00),Read,ACK
0.862979500000000,5,'160' (0xA0),'0' (0x00),Read,ACK
0.863003500000000,5,'160' (0xA0),'0' (0x00),Read,ACK
0.863028000000000,5,'160' (0xA0),'0' (0x00),Read,ACK
0.863052000000000,5,'160' (0xA0),'0' (0x00),Read,ACK
0.863076500000000,5,'160' (0xA0),'0' (0x00),Read,ACK
0.863100500000000,5,'160' (0xA0),'0' (0x00),Read,ACK
0.863125000000000,5,'160' (0xA0),'0' (0x00),Read,ACK
0.863149000000000,5,'160' (0xA0),'0' (0x00),Read,ACK
0.863173500000000,5,'160' (0xA0),'0' (0x00),Read,ACK
0.863197500000000,5,'160' (0xA0),'0' (0x00),Read,ACK
0.863222000000000,5,'160' (0xA0),'0' (0x00),Read,ACK
0.863246000000000,5,'160' (0xA0),'0' (0x00),Read,ACK
0.863270500000000,5,'160' (0xA0),'0' (0x00),Read,ACK
0.863294500000000,5,'160' (0xA0),'0' (0x00),Read,ACK
0.863319000000000,5,'160' (0xA0),'0' (0x00),Read,ACK
0.863343000000000,5,'160' (0xA0),'7' (0x07),Read,ACK
0.863367500000000,5,'160' (0xA0),'145' (0x91),Read,ACK
0.863391500000000,5,'160' (0xA0),'131' (0x83),Read,ACK
0.863416000000000,5,'160' (0xA0),` (0x60),Read,ACK
0.863440000000000,5,'160' (0xA0),w (0x77),Read,ACK
0.863464000000000,5,'160' (0xA0),p (0x70),Read,ACK
0.863488500000000,5,'160' (0xA0),'149' (0x95),Read,ACK
0.863512500000000,5,'160' (0xA0),'19' (0x13),Read,ACK
0.863537000000000,5,'160' (0xA0),'255' (0xFF),Read,ACK
0.863561000000000,5,'160' (0xA0),'255' (0xFF),Read,ACK
0.863585500000000,5,'160' (0xA0),'255' (0xFF),Read,ACK
0.863609500000000,5,'160' (0xA0),'255' (0xFF),Read,ACK
0.863634000000000,5,'160' (0xA0),'255' (0xFF),Read,ACK
0.863658000000000,5,'160' (0xA0),'22' (0x16),Read,ACK
0.863682500000000,5,'160' (0xA0),) (0x29),Read,ACK
0.863706500000000,5,'160' (0xA0),@ (0x40),Read,ACK
0.863731000000000,5,'160' (0xA0),! (0x21),Read,ACK
0.863755000000000,5,'160' (0xA0),'3' (0x03),Read,ACK
0.863779500000000,5,'160' (0xA0),'0' (0x00),Read,ACK
0.863803500000000,5,'160' (0xA0),'146' (0x92),Read,ACK
0.863828000000000,5,'160' (0xA0),u (0x75),Read,ACK
0.863852000000000,5,'160' (0xA0),P (0x50),Read,ACK
0.863876500000000,5,'160' (0xA0),1 (0x31),Read,ACK
0.863900500000000,5,'160' (0xA0),1 (0x31),Read,ACK
0.863925000000000,5,'160' (0xA0),2 (0x32),Read,ACK
0.863949000000000,5,'160' (0xA0),'0' (0x00),Read,ACK
0.863973000000000,5,'160' (0xA0),R (0x52),Read,ACK
0.863997500000000,5,'160' (0xA0),'245' (0xF5),Read,ACK
0.864021500000000,5,'160' (0xA0),'0' (0x00),Read,ACK
0.864046000000000,5,'160' (0xA0),0 (0x30),Read,ACK
0.864070000000000,5,'160' (0xA0),'255' (0xFF),Read,ACK
0.864094500000000,5,'160' (0xA0),'255' (0xFF),Read,ACK
0.864118500000000,5,'160' (0xA0),'0' (0x00),Read,ACK
0.864143000000000,5,'160' (0xA0),'0' (0x00),Read,ACK
0.864167000000000,5,'160' (0xA0),'255' (0xFF),Read,ACK
0.864191500000000,5,'160' (0xA0),'255' (0xFF),Read,ACK
0.864215500000000,5,'160' (0xA0),'0' (0x00),Read,ACK
0.864240000000000,5,'160' (0xA0),'255' (0xFF),Read,ACK
0.864264000000000,5,'160' (0xA0),'0' (0x00),Read,ACK
0.864288500000000,5,'160' (0xA0),'0' (0x00),Read,ACK
0.864312500000000,5,'160' (0xA0),'17' (0x11),Read,ACK
0.864337000000000,5,'160' (0xA0),'28' (0x1C),Read,ACK
0.864361000000000,5,'160' (0xA0),'0' (0x00),Read,ACK
0.864385500000000,5,'160' (0xA0),'0' (0x00),Read,ACK
0.864409500000000,5,'160' (0xA0),'0' (0x00),Read,ACK
0.864433500000000,5,'160' (0xA0),'0' (0x00),Read,ACK
0.864458000000000,5,'160' (0xA0),'0' (0x00),Read,ACK
0.864482000000000,5,'160' (0xA0),'0' (0x00),Read,ACK
0.864506500000000,5,'160' (0xA0),'0' (0x00),Read,ACK
0.864530500000000,5,'160' (0xA0),'0' (0x00),Read,ACK
0.864555000000000,5,'160' (0xA0),'0' (0x00),Read,ACK
0.864579000000000,5,'160' (0xA0),'14' (0x0E),Read,ACK
0.864603500000000,5,'160' (0xA0),'255' (0xFF),Read,ACK
0.864627500000000,5,'160' (0xA0),'0' (0x00),Read,ACK
0.864652000000000,5,'160' (0xA0),'0' (0x00),Read,ACK
0.864676000000000,5,'160' (0xA0),'0' (0x00),Read,ACK
0.864700500000000,5,'160' (0xA0),'0' (0x00),Read,ACK
0.864724500000000,5,'160' (0xA0),'0' (0x00),Read,ACK
0.864749000000000,5,'160' (0xA0),'0' (0x00),Read,ACK
0.864773000000000,5,'160' (0xA0),'0' (0x00),Read,ACK
0.864797500000000,5,'160' (0xA0),'0' (0x00),Read,ACK
0.864821500000000,5,'160' (0xA0),'0' (0x00),Read,ACK
0.864846000000000,5,'160' (0xA0),'0' (0x00),Read,ACK
0.864870000000000,5,'160' (0xA0),'0' (0x00),Read,ACK
0.864894500000000,5,'160' (0xA0),'0' (0x00),Read,ACK
0.864918500000000,5,'160' (0xA0),'0' (0x00),Read,ACK
0.864942500000000,5,'160' (0xA0),'0' (0x00),Read,ACK
0.864967000000000,5,'160' (0xA0),'0' (0x00),Read,ACK
0.864991000000000,5,'160' (0xA0),'0' (0x00),Read,ACK
0.865015500000000,5,'160' (0xA0),'0' (0x00),Read,ACK
0.865039500000000,5,'160' (0xA0),'0' (0x00),Read,ACK
0.865064000000000,5,'160' (0xA0),'0' (0x00),Read,ACK
0.865088000000000,5,'160' (0xA0),'0' (0x00),Read,ACK
0.865112500000000,5,'160' (0xA0),'0' (0x00),Read,ACK
0.865136500000000,5,'160' (0xA0),'0' (0x00),Read,ACK
0.865161000000000,5,'160' (0xA0),'0' (0x00),Read,ACK
0.865185000000000,5,'160' (0xA0),'0' (0x00),Read,ACK
0.865209500000000,5,'160' (0xA0),'0' (0x00),Read,ACK
0.865233500000000,5,'160' (0xA0),'0' (0x00),Read,ACK
0.865258000000000,5,'160' (0xA0),'0' (0x00),Read,ACK
0.865282000000000,5,'160' (0xA0),'0' (0x00),Read,ACK
0.865306500000000,5,'160' (0xA0),'8' (0x08),Read,ACK
0.865330500000000,5,'160' (0xA0),'0' (0x00),Read,ACK
0.865355000000000,5,'160' (0xA0),'0' (0x00),Read,ACK
0.865379000000000,5,'160' (0xA0),'0' (0x00),Read,ACK
0.865403000000000,5,'160' (0xA0),'0' (0x00),Read,ACK
0.865427500000000,5,'160' (0xA0),'0' (0x00),Read,ACK
0.865451500000000,5,'160' (0xA0),'0' (0x00),Read,ACK
0.865476000000000,5,'160' (0xA0),U (0x55),Read,ACK
0.865500000000000,5,'160' (0xA0),U (0x55),Read,ACK
0.865524500000000,5,'160' (0xA0),'255' (0xFF),Read,ACK
0.865548500000000,5,'160' (0xA0),'255' (0xFF),Read,ACK
0.865573000000000,5,'160' (0xA0),'255' (0xFF),Read,ACK
0.865597000000000,5,'160' (0xA0),'255' (0xFF),Read,ACK
0.865621500000000,5,'160' (0xA0),'255' (0xFF),Read,ACK
0.865645500000000,5,'160' (0xA0),'255' (0xFF),Read,ACK
0.865670000000000,5,'160' (0xA0),'255' (0xFF),Read,ACK
0.865694000000000,5,'160' (0xA0),'255' (0xFF),Read,ACK
0.865718500000000,5,'160' (0xA0),'255' (0xFF),Read,ACK
0.865742500000000,5,'160' (0xA0),'255' (0xFF),Read,ACK
0.865767000000000,5,'160' (0xA0),'255' (0xFF),Read,ACK
0.865791000000000,5,'160' (0xA0),'255' (0xFF),Read,ACK
0.865815500000000,5,'160' (0xA0),'255' (0xFF),Read,ACK
0.865839500000000,5,'160' (0xA0),'255' (0xFF),Read,ACK
0.865864000000000,5,'160' (0xA0),'255' (0xFF),Read,ACK
0.865888000000000,5,'160' (0xA0),'255' (0xFF),Read,ACK
0.865912000000000,5,'160' (0xA0),'255' (0xFF),Read,ACK
0.865936500000000,5,'160' (0xA0),'255' (0xFF),Read,ACK
0.865960500000000,5,'160' (0xA0),'255' (0xFF),Read,ACK
0.865985000000000,5,'160' (0xA0),'255' (0xFF),Read,ACK
0.866009000000000,5,'160' (0xA0),'255' (0xFF),Read,ACK
0.866033500000000,5,'160' (0xA0),'255' (0xFF),Read,ACK
0.866057500000000,5,'160' (0xA0),'255' (0xFF),Read,ACK
0.866082000000000,5,'160' (0xA0),'255' (0xFF),Read,ACK
0.866106000000000,5,'160' (0xA0),'0' (0x00),Read,ACK
0.866130500000000,5,'160' (0xA0),'0' (0x00),Read,ACK
0.866154500000000,5,'160' (0xA0),'255' (0xFF),Read,ACK
0.866179000000000,5,'160' (0xA0),'255' (0xFF),Read,ACK
0.866203000000000,5,'160' (0xA0),'255' (0xFF),Read,ACK
0.866227500000000,5,'160' (0xA0),'255' (0xFF),Read,ACK
0.866251500000000,5,'160' (0xA0),'255' (0xFF),Read,ACK
0.866276000000000,5,'160' (0xA0),'255' (0xFF),Read,ACK
0.866300000000000,5,'160' (0xA0),'255' (0xFF),Read,ACK
0.866324500000000,5,'160' (0xA0),'255' (0xFF),Read,ACK
0.866348500000000,5,'160' (0xA0),'255' (0xFF),Read,ACK
0.866372500000000,5,'160' (0xA0),'255' (0xFF),Read,ACK
0.866397000000000,5,'160' (0xA0),'255' (0xFF),Read,ACK
0.866421000000000,5,'160' (0xA0),'255' (0xFF),Read,ACK
0.866445500000000,5,'160' (0xA0),'255' (0xFF),Read,ACK
0.866469500000000,5,'160' (0xA0),'255' (0xFF),Read,ACK
0.866494000000000,5,'160' (0xA0),'0' (0x00),Read,ACK
0.866518000000000,5,'160' (0xA0),'5' (0x05),Read,ACK
0.866542500000000,5,'160' (0xA0),'0' (0x00),Read,ACK
0.866566500000000,5,'160' (0xA0),'5' (0x05),Read,ACK
0.866591000000000,5,'160' (0xA0),'0' (0x00),Read,ACK
0.866615000000000,5,'160' (0xA0),'0' (0x00),Read,ACK
0.866639500000000,5,'160' (0xA0),'0' (0x00),Read,ACK
0.866663500000000,5,'160' (0xA0),'0' (0x00),Read,ACK
0.866688000000000,5,'160' (0xA0),'0' (0x00),Read,ACK
0.866712000000000,5,'160' (0xA0),'0' (0x00),Read,ACK
0.866736500000000,5,'160' (0xA0),'0' (0x00),Read,ACK
0.866760500000000,5,'160' (0xA0),'0' (0x00),Read,ACK
0.866785000000000,5,'160' (0xA0),'0' (0x00),Read,ACK
0.866809000000000,5,'160' (0xA0),'0' (0x00),Read,ACK
0.866833500000000,5,'160' (0xA0),'0' (0x00),Read,ACK
0.866857500000000,5,'160' (0xA0),'0' (0x00),Read,ACK
0.866881500000000,5,'160' (0xA0),'255' (0xFF),Read,ACK
0.866906000000000,5,'160' (0xA0),'255' (0xFF),Read,ACK
0.866930000000000,5,'160' (0xA0),'0' (0x00),Read,ACK
0.866954500000000,5,'160' (0xA0),'0' (0x00),Read,ACK
0.866978500000000,5,'160' (0xA0),'0' (0x00),Read,ACK
0.867003000000000,5,'160' (0xA0),'0' (0x00),Read,ACK
0.867027000000000,5,'160' (0xA0),'0' (0x00),Read,ACK
0.867051500000000,5,'160' (0xA0),'0' (0x00),Read,ACK
0.867075500000000,5,'160' (0xA0),'0' (0x00),Read,ACK
0.867100000000000,5,'160' (0xA0),'0' (0x00),Read,ACK
0.867124000000000,5,'160' (0xA0),'0' (0x00),Read,ACK
0.867148500000000,5,'160' (0xA0),'0' (0x00),Read,ACK
0.867172500000000,5,'160' (0xA0),'0' (0x00),Read,ACK
0.867197000000000,5,'160' (0xA0),'0' (0x00),Read,ACK
0.867221000000000,5,'160' (0xA0),'255' (0xFF),Read,ACK
0.867245500000000,5,'160' (0xA0),'255' (0xFF),Read,ACK
0.867269500000000,5,'160' (0xA0),'0' (0x00),Read,ACK
0.867294000000000,5,'160' (0xA0),'0' (0x00),Read,ACK
0.867318000000000,5,'160' (0xA0),'0' (0x00),Read,ACK
0.867342000000000,5,'160' (0xA0),'0' (0x00),Read,ACK
0.867366500000000,5,'160' (0xA0),'0' (0x00),Read,ACK
0.867390500000000,5,'160' (0xA0),'0' (0x00),Read,ACK
0.867415000000000,5,'160' (0xA0),'0' (0x00),Read,ACK
0.867439000000000,5,'160' (0xA0),'0' (0x00),Read,ACK
0.867463500000000,5,'160' (0xA0),'0' (0x00),Read,ACK
0.867487500000000,5,'160' (0xA0),'0' (0x00),Read,ACK
0.867512000000000,5,'160' (0xA0),'0' (0x00),Read,ACK
0.867536000000000,5,'160' (0xA0),'0' (0x00),Read,ACK
0.867560500000000,5,'160' (0xA0),'255' (0xFF),Read,ACK
0.867584500000000,5,'160' (0xA0),'255' (0xFF),Read,ACK
0.867609000000000,5,'160' (0xA0),'0' (0x00),Read,ACK
0.867633000000000,5,'160' (0xA0),'0' (0x00),Read,ACK
0.867657500000000,5,'160' (0xA0),'0' (0x00),Read,ACK
0.867681500000000,5,'160' (0xA0),'0' (0x00),Read,ACK
0.867706000000000,5,'160' (0xA0),'0' (0x00),Read,ACK
0.867730000000000,5,'160' (0xA0),'0' (0x00),Read,ACK
0.867754500000000,5,'160' (0xA0),'0' (0x00),Read,ACK
0.867778500000000,5,'160' (0xA0),'0' (0x00),Read,ACK
0.867803000000000,5,'160' (0xA0),'0' (0x00),Read,ACK
0.867827000000000,5,'160' (0xA0),'0' (0x00),Read,ACK
0.867851000000000,5,'160' (0xA0),'0' (0x00),Read,ACK
0.867875500000000,5,'160' (0xA0),'0' (0x00),Read,ACK
0.867899500000000,5,'160' (0xA0),'255' (0xFF),Read,ACK
0.867924000000000,5,'160' (0xA0),'255' (0xFF),Read,ACK
0.867948000000000,5,'160' (0xA0),'0' (0x00),Read,ACK
0.867972500000000,5,'160' (0xA0),'0' (0x00),Read,ACK
0.867996500000000,5,'160' (0xA0),'0' (0x00),Read,ACK
0.868021000000000,5,'160' (0xA0),'0' (0x00),Read,ACK
0.868045000000000,5,'160' (0xA0),'0' (0x00),Read,ACK
0.868069500000000,5,'160' (0xA0),'0' (0x00),Read,ACK
0.868093500000000,5,'160' (0xA0),'0' (0x00),Read,ACK
0.868118000000000,5,'160' (0xA0),'0' (0x00),Read,ACK
0.868142000000000,5,'160' (0xA0),'0' (0x00),Read,ACK
0.868166500000000,5,'160' (0xA0),'0' (0x00),Read,ACK
0.868190500000000,5,'160' (0xA0),'0' (0x00),Read,ACK
0.868215000000000,5,'160' (0xA0),'0' (0x00),Read,ACK
0.868239000000000,5,'160' (0xA0),'0' (0x00),Read,ACK
0.868263500000000,5,'160' (0xA0),'0' (0x00),Read,NAK
0.869814000000000,6,'160' (0xA0),'0' (0x00),Write,ACK
0.869838500000000,6,'160' (0xA0),'208' (0xD0),Write,ACK
0.880607000000000,7,'160' (0xA0),'182' (0xB6),Read,ACK
0.880631000000000,7,'160' (0xA0),'31' (0x1F),Read,ACK
0.880655500000000,7,'160' (0xA0),1 (0x31),Read,ACK
0.880680500000000,7,'160' (0xA0),2 (0x32),Read,ACK
0.880704500000000,7,'160' (0xA0),3 (0x33),Read,ACK
0.880729000000000,7,'160' (0xA0),4 (0x34),Read,NAK
0.881733000000000,8,'160' (0xA0),'0' (0x00),Write,ACK
0.881757500000000,8,'160' (0xA0),'224' (0xE0),Write,ACK
0.892525500000000,9,'160' (0xA0),'233' (0xE9),Read,ACK
0.892550000000000,9,'160' (0xA0),'5' (0x05),Read,ACK
0.892574000000000,9,'160' (0xA0),1 (0x31),Read,ACK
0.892599000000000,9,'160' (0xA0),2 (0x32),Read,ACK
0.892623500000000,9,'160' (0xA0),3 (0x33),Read,ACK
0.892647500000000,9,'160' (0xA0),4 (0x34),Read,NAK
0.893573000000000,10,'160' (0xA0),'0' (0x00),Write,ACK
0.893597500000000,10,'160' (0xA0),'224' (0xE0),Write,ACK
0.904362500000000,11,'160' (0xA0),'233' (0xE9),Read,ACK
0.904387000000000,11,'160' (0xA0),'5' (0x05),Read,ACK
0.904411000000000,11,'160' (0xA0),1 (0x31),Read,ACK
0.904436000000000,11,'160' (0xA0),2 (0x32),Read,ACK
0.904460500000000,11,'160' (0xA0),3 (0x33),Read,ACK
0.904484500000000,11,'160' (0xA0),4 (0x34),Read,ACK
0.904509000000000,11,'160' (0xA0),'244' (0xF4),Read,ACK
0.904533500000000,11,'160' (0xA0),'12' (0x0C),Read,ACK
0.904557500000000,11,'160' (0xA0),} (0x7D),Read,ACK
0.904582000000000,11,'160' (0xA0),'160' (0xA0),Read,ACK
0.904606000000000,11,'160' (0xA0),'234' (0xEA),Read,ACK
0.904630500000000,11,'160' (0xA0),'245' (0xF5),Read,ACK
0.904656500000000,11,'160' (0xA0),'154' (0x9A),Read,ACK
0.904680500000000,11,'160' (0xA0),r (0x72),Read,ACK
0.904705000000000,11,'160' (0xA0),'244' (0xF4),Read,ACK
0.904729000000000,11,'160' (0xA0),'243' (0xF3),Read,ACK
0.904753500000000,11,'160' (0xA0),} (0x7D),Read,ACK
0.904777500000000,11,'160' (0xA0),_ (0x5F),Read,ACK
0.904802000000000,11,'160' (0xA0),'234' (0xEA),Read,ACK
0.904826000000000,11,'160' (0xA0),\n (0x0A),Read,ACK
0.904850500000000,11,'160' (0xA0),'154' (0x9A),Read,ACK
0.904874500000000,11,'160' (0xA0),'141' (0x8D),Read,ACK
0.904899000000000,11,'160' (0xA0),'11' (0x0B),Read,ACK
0.904923000000000,11,'160' (0xA0),'12' (0x0C),Read,ACK
0.904947000000000,11,'160' (0xA0),'130' (0x82),Read,ACK
0.904971500000000,11,'160' (0xA0),'160' (0xA0),Read,ACK
0.904995500000000,11,'160' (0xA0),'21' (0x15),Read,ACK
0.905020000000000,11,'160' (0xA0),'245' (0xF5),Read,ACK
0.905044000000000,11,'160' (0xA0),e (0x65),Read,ACK
0.905068500000000,11,'160' (0xA0),r (0x72),Read,ACK
0.905092500000000,11,'160' (0xA0),'244' (0xF4),Read,ACK
0.905117000000000,11,'160' (0xA0),'243' (0xF3),Read,ACK
0.905141000000000,11,'160' (0xA0),x (0x78),Read,ACK
0.905165500000000,11,'160' (0xA0),Z (0x5A),Read,ACK
0.905189500000000,11,'160' (0xA0),'21' (0x15),Read,ACK
0.905214000000000,11,'160' (0xA0),'245' (0xF5),Read,ACK
0.905238000000000,11,'160' (0xA0),e (0x65),Read,ACK
0.905262500000000,11,'160' (0xA0),r (0x72),Read,ACK
0.905286500000000,11,'160' (0xA0),'11' (0x0B),Read,ACK
0.905311000000000,11,'160' (0xA0),'12' (0x0C),Read,ACK
0.905335000000000,11,'160' (0xA0),'130' (0x82),Read,ACK
0.905359500000000,11,'160' (0xA0),'160' (0xA0),Read,ACK
0.905383500000000,11,'160' (0xA0),'234' (0xEA),Read,ACK
0.905407500000000,11,'160' (0xA0),'11' (0x0B),Read,ACK
0.905432000000000,11,'160' (0xA0),'159' (0x9F),Read,ACK
0.905456000000000,11,'160' (0xA0),'136' (0x88),Read,ACK
0.905480500000000,11,'160' (0xA0),'11' (0x0B),Read,ACK
0.905504500000000,11,'160' (0xA0),'12' (0x0C),Read,ACK
0.905529000000000,11,'160' (0xA0),'130' (0x82),Read,ACK
0.905553000000000,11,'160' (0xA0),'160' (0xA0),Read,ACK
0.905577500000000,11,'160' (0xA0),'21' (0x15),Read,ACK
0.905601500000000,11,'160' (0xA0),'245' (0xF5),Read,ACK
0.905626000000000,11,'160' (0xA0),e (0x65),Read,ACK
0.905650000000000,11,'160' (0xA0),r (0x72),Read,ACK
0.905674500000000,11,'160' (0xA0),'244' (0xF4),Read,ACK
0.905698500000000,11,'160' (0xA0),'241' (0xF1),Read,ACK
0.905723000000000,11,'160' (0xA0),x (0x78),Read,ACK
0.905747000000000,11,'160' (0xA0),Z (0x5A),Read,ACK
0.905771500000000,11,'160' (0xA0),'21' (0x15),Read,ACK
0.905795500000000,11,'160' (0xA0),'245' (0xF5),Read,ACK
0.905820000000000,11,'160' (0xA0),e (0x65),Read,ACK
0.905844000000000,11,'160' (0xA0),r (0x72),Read,ACK
0.905868500000000,11,'160' (0xA0),'11' (0x0B),Read,ACK
0.905892500000000,11,'160' (0xA0),'12' (0x0C),Read,ACK
0.905916500000000,11,'160' (0xA0),'130' (0x82),Read,ACK
0.905941000000000,11,'160' (0xA0),'160' (0xA0),Read,ACK
0.905965000000000,11,'160' (0xA0),'234' (0xEA),Read,ACK
0.905989500000000,11,'160' (0xA0),\t (0x09),Read,ACK
0.906013500000000,11,'160' (0xA0),'159' (0x9F),Read,ACK
0.906038000000000,11,'160' (0xA0),'136' (0x88),Read,ACK
0.906062000000000,11,'160' (0xA0),'11' (0x0B),Read,ACK
0.906086500000000,11,'160' (0xA0),'12' (0x0C),Read,ACK
0.906110500000000,11,'160' (0xA0),'130' (0x82),Read,ACK
0.906135000000000,11,'160' (0xA0),'160' (0xA0),Read,ACK
0.906159000000000,11,'160' (0xA0),'21' (0x15),Read,ACK
0.906183500000000,11,'160' (0xA0),'245' (0xF5),Read,ACK
0.906207500000000,11,'160' (0xA0),e (0x65),Read,ACK
0.906232000000000,11,'160' (0xA0),r (0x72),Read,ACK
0.906256000000000,11,'160' (0xA0),'244' (0xF4),Read,ACK
0.906280500000000,11,'160' (0xA0),'247' (0xF7),Read,ACK
0.906304500000000,11,'160' (0xA0),x (0x78),Read,ACK
0.906329000000000,11,'160' (0xA0),Z (0x5A),Read,ACK
0.906353000000000,11,'160' (0xA0),'224' (0xE0),Read,ACK
0.906377000000000,11,'160' (0xA0),\n (0x0A),Read,ACK
0.906401500000000,11,'160' (0xA0),'154' (0x9A),Read,ACK
0.906425500000000,11,'160' (0xA0),'141' (0x8D),Read,ACK
0.906450000000000,11,'160' (0xA0),'244' (0xF4),Read,ACK
0.906474000000000,11,'160' (0xA0),'243' (0xF3),Read,ACK
0.906498500000000,11,'160' (0xA0),} (0x7D),Read,ACK
0.906522500000000,11,'160' (0xA0),_ (0x5F),Read,ACK
0.906547000000000,11,'160' (0xA0),'234' (0xEA),Read,ACK
0.906571000000000,11,'160' (0xA0),\n (0x0A),Read,ACK
0.906595500000000,11,'160' (0xA0),'154' (0x9A),Read,ACK
0.906619500000000,11,'160' (0xA0),'141' (0x8D),Read,ACK
0.906644000000000,11,'160' (0xA0),'244' (0xF4),Read,ACK
0.906668000000000,11,'160' (0xA0),'243' (0xF3),Read,ACK
0.906692500000000,11,'160' (0xA0),} (0x7D),Read,ACK
0.906716500000000,11,'160' (0xA0),_ (0x5F),Read,ACK
0.906741000000000,11,'160' (0xA0),'234' (0xEA),Read,ACK
0.906765000000000,11,'160' (0xA0),\n (0x0A),Read,ACK
0.906789500000000,11,'160' (0xA0),'154' (0x9A),Read,ACK
0.906813500000000,11,'160' (0xA0),'141' (0x8D),Read,ACK
0.906838000000000,11,'160' (0xA0),'244' (0xF4),Read,ACK
0.906862000000000,11,'160' (0xA0),'243' (0xF3),Read,ACK
0.906886000000000,11,'160' (0xA0),} (0x7D),Read,ACK
0.906910500000000,11,'160' (0xA0),_ (0x5F),Read,ACK
0.906934500000000,11,'160' (0xA0),'234' (0xEA),Read,ACK
0.906959000000000,11,'160' (0xA0),\n (0x0A),Read,ACK
0.906983000000000,11,'160' (0xA0),'154' (0x9A),Read,ACK
0.907007500000000,11,'160' (0xA0),'141' (0x8D),Read,ACK
0.907031500000000,11,'160' (0xA0),'244' (0xF4),Read,ACK
0.907056000000000,11,'160' (0xA0),'243' (0xF3),Read,ACK
0.907080000000000,11,'160' (0xA0),} (0x7D),Read,ACK
0.907104500000000,11,'160' (0xA0),_ (0x5F),Read,ACK
0.907128500000000,11,'160' (0xA0),'234' (0xEA),Read,ACK
0.907153000000000,11,'160' (0xA0),\n (0x0A),Read,NAK
0.909145000000000,12,'160' (0xA0),'1' (0x01),Write,ACK
0.909169500000000,12,'160' (0xA0),` (0x60),Write,ACK
0.919944500000000,13,'160' (0xA0),'255' (0xFF),Read,ACK
0.919968500000000,13,'160' (0xA0),'255' (0xFF),Read,ACK
0.919993000000000,13,'160' (0xA0),'255' (0xFF),Read,ACK
0.920018000000000,13,'160' (0xA0),'255' (0xFF),Read,ACK
0.920042000000000,13,'160' (0xA0),'255' (0xFF),Read,ACK
0.920066500000000,13,'160' (0xA0),'255' (0xFF),Read,NAK
0.921018000000000,14,'160' (0xA0),'1' (0x01),Write,ACK
0.921042500000000,14,'160' (0xA0),'208' (0xD0),Write,ACK
0.931801000000000,15,'160' (0xA0),O (0x4F),Read,ACK
0.931825500000000,15,'160' (0xA0),'2' (0x02),Read,ACK
0.931849500000000,15,'160' (0xA0),1 (0x31),Read,ACK
0.931875000000000,15,'160' (0xA0),2 (0x32),Read,ACK
0.931899000000000,15,'160' (0xA0),3 (0x33),Read,ACK
0.931923000000000,15,'160' (0xA0),4 (0x34),Read,NAK
0.932848500000000,16,'160' (0xA0),'1' (0x01),Write,ACK
0.932873000000000,16,'160' (0xA0),'208' (0xD0),Write,ACK
0.943641500000000,17,'160' (0xA0),O (0x4F),Read,ACK
0.943665500000000,17,'160' (0xA0),'2' (0x02),Read,ACK
0.943690000000000,17,'160' (0xA0),1 (0x31),Read,ACK
0.943715000000000,17,'160' (0xA0),2 (0x32),Read,ACK
0.943739000000000,17,'160' (0xA0),3 (0x33),Read,ACK
0.943763500000000,17,'160' (0xA0),4 (0x34),Read,ACK
0.943787500000000,17,'160' (0xA0),'12' (0x0C),Read,ACK
0.943812000000000,17,'160' (0xA0),\r (0x0D),Read,ACK
0.943836500000000,17,'160' (0xA0),'1' (0x01),Read,ACK
0.943860500000000,17,'160' (0xA0),'244' (0xF4),Read,ACK
0.943885000000000,17,'160' (0xA0),'135' (0x87),Read,ACK
0.943909000000000,17,'160' (0xA0),$ (0x24),Read,ACK
0.943935000000000,17,'160' (0xA0),'2' (0x02),Read,ACK
0.943959500000000,17,'160' (0xA0),'152' (0x98),Read,ACK
0.943983500000000,17,'160' (0xA0),'2' (0x02),Read,ACK
0.944008000000000,17,'160' (0xA0),'219' (0xDB),Read,ACK
0.944032000000000,17,'160' (0xA0),'2' (0x02),Read,ACK
0.944056500000000,17,'160' (0xA0),'239' (0xEF),Read,ACK
0.944080500000000,17,'160' (0xA0),'2' (0x02),Read,ACK
0.944105000000000,17,'160' (0xA0),'247' (0xF7),Read,ACK
0.944129000000000,17,'160' (0xA0),'0' (0x00),Read,ACK
0.944153500000000,17,'160' (0xA0),'0' (0x00),Read,ACK
0.944177500000000,17,'160' (0xA0),'0' (0x00),Read,ACK
0.944202000000000,17,'160' (0xA0),3 (0x33),Read,ACK
0.944226000000000,17,'160' (0xA0),7 (0x37),Read,ACK
0.944250000000000,17,'160' (0xA0),'190' (0xBE),Read,ACK
0.944274500000000,17,'160' (0xA0),'28' (0x1C),Read,ACK
0.944298500000000,17,'160' (0xA0),'22' (0x16),Read,ACK
0.944323000000000,17,'160' (0xA0),'15' (0x0F),Read,ACK
0.944347000000000,17,'160' (0xA0),'0' (0x00),Read,NAK
0.945425500000000,18,'160' (0xA0),'1' (0x01),Write,ACK
0.945450000000000,18,'160' (0xA0),'240' (0xF0),Write,ACK
0.956208500000000,19,'160' (0xA0),'255' (0xFF),Read,ACK
0.956232500000000,19,'160' (0xA0),'255' (0xFF),Read,ACK
0.956257000000000,19,'160' (0xA0),'255' (0xFF),Read,ACK
0.956282000000000,19,'160' (0xA0),'255' (0xFF),Read,ACK
0.956306000000000,19,'160' (0xA0),'255' (0xFF),Read,ACK
0.956330500000000,19,'160' (0xA0),'255' (0xFF),Read,NAK
0.957308000000000,20,'160' (0xA0),'2' (0x02),Write,ACK
0.957333000000000,20,'160' (0xA0),'0' (0x00),Write,ACK
0.968104000000000,21,'160' (0xA0),'8' (0x08),Read,ACK
0.968128500000000,21,'160' (0xA0),'1' (0x01),Read,ACK
0.968152500000000,21,'160' (0xA0),1 (0x31),Read,ACK
0.968178000000000,21,'160' (0xA0),2 (0x32),Read,ACK
0.968202000000000,21,'160' (0xA0),3 (0x33),Read,ACK
0.968226500000000,21,'160' (0xA0),4 (0x34),Read,NAK
0.969150500000000,22,'160' (0xA0),'2' (0x02),Write,ACK
0.969175500000000,22,'160' (0xA0),'0' (0x00),Write,ACK
0.979943500000000,23,'160' (0xA0),'8' (0x08),Read,ACK
0.979968000000000,23,'160' (0xA0),'1' (0x01),Read,ACK
0.979992000000000,23,'160' (0xA0),1 (0x31),Read,ACK
0.980017000000000,23,'160' (0xA0),2 (0x32),Read,ACK
0.980041500000000,23,'160' (0xA0),3 (0x33),Read,ACK
0.980065500000000,23,'160' (0xA0),4 (0x34),Read,ACK
0.980090000000000,23,'160' (0xA0),D (0x44),Read,ACK
0.980114500000000,23,'160' (0xA0),'150' (0x96),Read,ACK
0.980138500000000,23,'160' (0xA0),'128' (0x80),Read,ACK
0.980163000000000,23,'160' (0xA0),S (0x53),Read,ACK
0.980187000000000,23,'160' (0xA0),'150' (0x96),Read,ACK
0.980211500000000,23,'160' (0xA0),& (0x26),Read,ACK
0.980237500000000,23,'160' (0xA0),' ' (0x20),Read,ACK
0.980261500000000,23,'160' (0xA0),'143' (0x8F),Read,ACK
0.980286000000000,23,'160' (0xA0),c (0x63),Read,ACK
0.980310000000000,23,'160' (0xA0),{ (0x7B),Read,ACK
0.980334500000000,23,'160' (0xA0),'163' (0xA3),Read,ACK
0.980358500000000,23,'160' (0xA0),'183' (0xB7),Read,ACK
0.980383000000000,23,'160' (0xA0),\ (0x5C),Read,ACK
0.980407000000000,23,'160' (0xA0),'137' (0x89),Read,ACK
0.980431500000000,23,'160' (0xA0),> (0x3E),Read,ACK
0.980455500000000,23,'160' (0xA0),'202' (0xCA),Read,NAK
0.985470500000000,24,'160' (0xA0),'2' (0x02),Write,ACK
0.985495000000000,24,'160' (0xA0),'6' (0x06),Write,ACK
0.996253500000000,25,'160' (0xA0),D (0x44),Read,ACK
0.996278000000000,25,'160' (0xA0),'150' (0x96),Read,ACK
0.996302000000000,25,'160' (0xA0),'128' (0x80),Read,ACK
0.996327500000000,25,'160' (0xA0),S (0x53),Read,ACK
0.996351500000000,25,'160' (0xA0),'150' (0x96),Read,ACK
0.996375500000000,25,'160' (0xA0),& (0x26),Read,ACK
0.996400000000000,25,'160' (0xA0),' ' (0x20),Read,ACK
0.996424500000000,25,'160' (0xA0),'143' (0x8F),Read,NAK
0.997244500000000,26,'160' (0xA0),'2' (0x02),Write,ACK
0.997269000000000,26,'160' (0xA0),'14' (0x0E),Write,ACK
1.008031000000000,27,'160' (0xA0),c (0x63),Read,ACK
1.008055000000000,27,'160' (0xA0),{ (0x7B),Read,ACK
1.008079500000000,27,'160' (0xA0),'163' (0xA3),Read,ACK
1.008104500000000,27,'160' (0xA0),'183' (0xB7),Read,ACK
1.008128500000000,27,'160' (0xA0),\ (0x5C),Read,ACK
1.008153000000000,27,'160' (0xA0),'137' (0x89),Read,ACK
1.008177000000000,27,'160' (0xA0),> (0x3E),Read,ACK
1.008201500000000,27,'160' (0xA0),'202' (0xCA),Read,NAK
1.012450500000000,28,'160' (0xA0),'2' (0x02),Write,ACK
1.012475500000000,28,'160' (0xA0),' ' (0x20),Write,ACK
1.023240500000000,29,'160' (0xA0),! (0x21),Read,ACK
1.023264500000000,29,'160' (0xA0),'1' (0x01),Read,ACK
1.023289000000000,29,'160' (0xA0),1 (0x31),Read,ACK
1.023314000000000,29,'160' (0xA0),2 (0x32),Read,ACK
1.023338000000000,29,'160' (0xA0),3 (0x33),Read,ACK
1.023362500000000,29,'160' (0xA0),4 (0x34),Read,NAK
1.024345000000000,30,'160' (0xA0),'2' (0x02),Write,ACK
1.024369500000000,30,'160' (0xA0),' ' (0x20),Write,ACK
1.035137500000000,31,'160' (0xA0),! (0x21),Read,ACK
1.035162000000000,31,'160' (0xA0),'1' (0x01),Read,ACK
1.035186000000000,31,'160' (0xA0),1 (0x31),Read,ACK
1.035211500000000,31,'160' (0xA0),2 (0x32),Read,ACK
1.035235500000000,31,'160' (0xA0),3 (0x33),Read,ACK
1.035260000000000,31,'160' (0xA0),4 (0x34),Read,ACK
1.035284000000000,31,'160' (0xA0),'255' (0xFF),Read,ACK
1.035308500000000,31,'160' (0xA0),'255' (0xFF),Read,ACK
1.035333000000000,31,'160' (0xA0),'255' (0xFF),Read,ACK
1.035357500000000,31,'160' (0xA0),'255' (0xFF),Read,ACK
1.035382500000000,31,'160' (0xA0),'255' (0xFF),Read,ACK
1.035407500000000,31,'160' (0xA0),'255' (0xFF),Read,ACK
1.035432000000000,31,'160' (0xA0),'255' (0xFF),Read,ACK
1.035457000000000,31,'160' (0xA0),'255' (0xFF),Read,ACK
1.035481000000000,31,'160' (0xA0),'255' (0xFF),Read,ACK
1.035505500000000,31,'160' (0xA0),'255' (0xFF),Read,ACK
1.035529500000000,31,'160' (0xA0),'255' (0xFF),Read,ACK
1.035554000000000,31,'160' (0xA0),'255' (0xFF),Read,ACK
1.035578000000000,31,'160' (0xA0),'255' (0xFF),Read,ACK
1.035602500000000,31,'160' (0xA0),'255' (0xFF),Read,ACK
1.035626500000000,31,'160' (0xA0),'255' (0xFF),Read,ACK
1.035651000000000,31,'160' (0xA0),'255' (0xFF),Read,ACK
1.035675000000000,31,'160' (0xA0),'255' (0xFF),Read,ACK
1.035699500000000,31,'160' (0xA0),'255' (0xFF),Read,ACK
1.035723500000000,31,'160' (0xA0),'255' (0xFF),Read,ACK
1.035748000000000,31,'160' (0xA0),'255' (0xFF),Read,ACK
1.035772000000000,31,'160' (0xA0),'255' (0xFF),Read,ACK
1.035796000000000,31,'160' (0xA0),'255' (0xFF),Read,ACK
1.035820500000000,31,'160' (0xA0),'255' (0xFF),Read,ACK
1.035844500000000,31,'160' (0xA0),'255' (0xFF),Read,ACK
1.035869000000000,31,'160' (0xA0),'255' (0xFF),Read,ACK
1.035893000000000,31,'160' (0xA0),'255' (0xFF),Read,ACK
1.035917500000000,31,'160' (0xA0),'255' (0xFF),Read,ACK
1.035941500000000,31,'160' (0xA0),'255' (0xFF),Read,ACK
1.035966000000000,31,'160' (0xA0),'255' (0xFF),Read,ACK
1.035990000000000,31,'160' (0xA0),'255' (0xFF),Read,ACK
1.036014500000000,31,'160' (0xA0),'255' (0xFF),Read,ACK
1.036038500000000,31,'160' (0xA0),'255' (0xFF),Read,ACK
1.036063000000000,31,'160' (0xA0),'255' (0xFF),Read,ACK
1.036087000000000,31,'160' (0xA0),'255' (0xFF),Read,ACK
1.036111500000000,31,'160' (0xA0),'255' (0xFF),Read,ACK
1.036135500000000,31,'160' (0xA0),'255' (0xFF),Read,ACK
1.036160000000000,31,'160' (0xA0),'255' (0xFF),Read,ACK
1.036184000000000,31,'160' (0xA0),'255' (0xFF),Read,ACK
1.036208500000000,31,'160' (0xA0),'255' (0xFF),Read,ACK
1.036232500000000,31,'160' (0xA0),'255' (0xFF),Read,ACK
1.036257000000000,31,'160' (0xA0),'255' (0xFF),Read,ACK
1.036281000000000,31,'160' (0xA0),'255' (0xFF),Read,ACK
1.036305000000000,31,'160' (0xA0),'255' (0xFF),Read,ACK
1.036329500000000,31,'160' (0xA0),'255' (0xFF),Read,ACK
1.036353500000000,31,'160' (0xA0),'255' (0xFF),Read,ACK
1.036378000000000,31,'160' (0xA0),'255' (0xFF),Read,ACK
1.036402000000000,31,'160' (0xA0),'255' (0xFF),Read,ACK
1.036426500000000,31,'160' (0xA0),'255' (0xFF),Read,ACK
1.036450500000000,31,'160' (0xA0),'255' (0xFF),Read,ACK
1.036475000000000,31,'160' (0xA0),'255' (0xFF),Read,ACK
1.036499000000000,31,'160' (0xA0),'255' (0xFF),Read,ACK
1.036523500000000,31,'160' (0xA0),'255' (0xFF),Read,ACK
1.036547500000000,31,'160' (0xA0),'255' (0xFF),Read,ACK
1.036572000000000,31,'160' (0xA0),'255' (0xFF),Read,ACK
1.036596000000000,31,'160' (0xA0),'255' (0xFF),Read,ACK
1.036620500000000,31,'160' (0xA0),'255' (0xFF),Read,ACK
1.036644500000000,31,'160' (0xA0),'255' (0xFF),Read,ACK
1.036669000000000,31,'160' (0xA0),'255' (0xFF),Read,ACK
1.036693000000000,31,'160' (0xA0),'255' (0xFF),Read,ACK
1.036717500000000,31,'160' (0xA0),'255' (0xFF),Read,ACK
1.036741500000000,31,'160' (0xA0),'255' (0xFF),Read,ACK
1.036765500000000,31,'160' (0xA0),'255' (0xFF),Read,ACK
1.036790000000000,31,'160' (0xA0),'255' (0xFF),Read,ACK
1.036814000000000,31,'160' (0xA0),'255' (0xFF),Read,ACK
1.036838500000000,31,'160' (0xA0),'255' (0xFF),Read,ACK
1.036862500000000,31,'160' (0xA0),'255' (0xFF),Read,ACK
1.036887000000000,31,'160' (0xA0),'255' (0xFF),Read,ACK
1.036911000000000,31,'160' (0xA0),'255' (0xFF),Read,ACK
1.036935500000000,31,'160' (0xA0),'255' (0xFF),Read,ACK
1.036959500000000,31,'160' (0xA0),'255' (0xFF),Read,ACK
1.036984000000000,31,'160' (0xA0),'255' (0xFF),Read,ACK
1.037008000000000,31,'160' (0xA0),'255' (0xFF),Read,ACK
1.037032500000000,31,'160' (0xA0),'255' (0xFF),Read,ACK
1.037056500000000,31,'160' (0xA0),'255' (0xFF),Read,ACK
1.037081000000000,31,'160' (0xA0),'255' (0xFF),Read,ACK
1.037105000000000,31,'160' (0xA0),'255' (0xFF),Read,ACK
1.037129500000000,31,'160' (0xA0),'255' (0xFF),Read,ACK
1.037153500000000,31,'160' (0xA0),'255' (0xFF),Read,ACK
1.037178000000000,31,'160' (0xA0),'255' (0xFF),Read,ACK
1.037202000000000,31,'160' (0xA0),'255' (0xFF),Read,ACK
1.037226500000000,31,'160' (0xA0),'255' (0xFF),Read,ACK
1.037250500000000,31,'160' (0xA0),'255' (0xFF),Read,ACK
1.037274500000000,31,'160' (0xA0),'255' (0xFF),Read,ACK
1.037299000000000,31,'160' (0xA0),'255' (0xFF),Read,ACK
1.037323000000000,31,'160' (0xA0),'255' (0xFF),Read,ACK
1.037347500000000,31,'160' (0xA0),'255' (0xFF),Read,ACK
1.037371500000000,31,'160' (0xA0),'255' (0xFF),Read,ACK
1.037396000000000,31,'160' (0xA0),'255' (0xFF),Read,ACK
1.037420000000000,31,'160' (0xA0),'255' (0xFF),Read,ACK
1.037444500000000,31,'160' (0xA0),'255' (0xFF),Read,ACK
1.037468500000000,31,'160' (0xA0),'255' (0xFF),Read,ACK
1.037493000000000,31,'160' (0xA0),'255' (0xFF),Read,ACK
1.037517000000000,31,'160' (0xA0),'255' (0xFF),Read,ACK
1.037541500000000,31,'160' (0xA0),'255' (0xFF),Read,ACK
1.037565500000000,31,'160' (0xA0),'255' (0xFF),Read,ACK
1.037590000000000,31,'160' (0xA0),'255' (0xFF),Read,ACK
1.037614000000000,31,'160' (0xA0),'255' (0xFF),Read,ACK
1.037638500000000,31,'160' (0xA0),'255' (0xFF),Read,ACK
1.037662500000000,31,'160' (0xA0),'255' (0xFF),Read,ACK
1.037687000000000,31,'160' (0xA0),'255' (0xFF),Read,ACK
1.037711000000000,31,'160' (0xA0),'255' (0xFF),Read,ACK
1.037735000000000,31,'160' (0xA0),'255' (0xFF),Read,ACK
1.037759500000000,31,'160' (0xA0),'255' (0xFF),Read,ACK
1.037783500000000,31,'160' (0xA0),'255' (0xFF),Read,ACK
1.037808000000000,31,'160' (0xA0),'255' (0xFF),Read,ACK
1.037832000000000,31,'160' (0xA0),'255' (0xFF),Read,ACK
1.037856500000000,31,'160' (0xA0),'255' (0xFF),Read,ACK
1.037880500000000,31,'160' (0xA0),'255' (0xFF),Read,ACK
1.037905000000000,31,'160' (0xA0),'255' (0xFF),Read,ACK
1.037929000000000,31,'160' (0xA0),'255' (0xFF),Read,ACK
1.037953500000000,31,'160' (0xA0),'255' (0xFF),Read,ACK
1.037977500000000,31,'160' (0xA0),'255' (0xFF),Read,ACK
1.038002000000000,31,'160' (0xA0),'255' (0xFF),Read,ACK
1.038026000000000,31,'160' (0xA0),'255' (0xFF),Read,ACK
1.038050500000000,31,'160' (0xA0),'255' (0xFF),Read,ACK
1.038074500000000,31,'160' (0xA0),'255' (0xFF),Read,ACK
1.038099000000000,31,'160' (0xA0),'255' (0xFF),Read,ACK
1.038123000000000,31,'160' (0xA0),'255' (0xFF),Read,ACK
1.038147500000000,31,'160' (0xA0),'255' (0xFF),Read,ACK
1.038171500000000,31,'160' (0xA0),'255' (0xFF),Read,ACK
1.038196000000000,31,'160' (0xA0),'255' (0xFF),Read,ACK
1.038220000000000,31,'160' (0xA0),'255' (0xFF),Read,ACK
1.038244000000000,31,'160' (0xA0),'255' (0xFF),Read,ACK
1.038268500000000,31,'160' (0xA0),'255' (0xFF),Read,ACK
1.038292500000000,31,'160' (0xA0),'255' (0xFF),Read,ACK
1.038317000000000,31,'160' (0xA0),'255' (0xFF),Read,ACK
1.038341000000000,31,'160' (0xA0),'255' (0xFF),Read,ACK
1.038365500000000,31,'160' (0xA0),'255' (0xFF),Read,ACK
1.038389500000000,31,'160' (0xA0),'255' (0xFF),Read,ACK
1.038414000000000,31,'160' (0xA0),'255' (0xFF),Read,ACK
1.038438000000000,31,'160' (0xA0),'255' (0xFF),Read,ACK
1.038462500000000,31,'160' (0xA0),'255' (0xFF),Read,ACK
1.038486500000000,31,'160' (0xA0),'255' (0xFF),Read,ACK
1.038511000000000,31,'160' (0xA0),'255' (0xFF),Read,ACK
1.038535000000000,31,'160' (0xA0),'255' (0xFF),Read,ACK
1.038559500000000,31,'160' (0xA0),'255' (0xFF),Read,ACK
1.038583500000000,31,'160' (0xA0),'255' (0xFF),Read,ACK
1.038608000000000,31,'160' (0xA0),'255' (0xFF),Read,ACK
1.038632000000000,31,'160' (0xA0),'255' (0xFF),Read,ACK
1.038656500000000,31,'160' (0xA0),'255' (0xFF),Read,ACK
1.038680500000000,31,'160' (0xA0),'255' (0xFF),Read,ACK
1.038704500000000,31,'160' (0xA0),'255' (0xFF),Read,ACK
1.038729000000000,31,'160' (0xA0),'255' (0xFF),Read,ACK
1.038753000000000,31,'160' (0xA0),'255' (0xFF),Read,ACK
1.038777500000000,31,'160' (0xA0),'255' (0xFF),Read,ACK
1.038801500000000,31,'160' (0xA0),'255' (0xFF),Read,ACK
1.038826000000000,31,'160' (0xA0),'255' (0xFF),Read,ACK
1.038850000000000,31,'160' (0xA0),'255' (0xFF),Read,ACK
1.038874500000000,31,'160' (0xA0),'255' (0xFF),Read,ACK
1.038898500000000,31,'160' (0xA0),'255' (0xFF),Read,ACK
1.038923000000000,31,'160' (0xA0),'255' (0xFF),Read,ACK
1.038947000000000,31,'160' (0xA0),'255' (0xFF),Read,ACK
1.038971500000000,31,'160' (0xA0),'255' (0xFF),Read,ACK
1.038995500000000,31,'160' (0xA0),'255' (0xFF),Read,ACK
1.039020000000000,31,'160' (0xA0),'255' (0xFF),Read,ACK
1.039044000000000,31,'160' (0xA0),'255' (0xFF),Read,ACK
1.039068500000000,31,'160' (0xA0),'255' (0xFF),Read,ACK
1.039092500000000,31,'160' (0xA0),'255' (0xFF),Read,ACK
1.039117000000000,31,'160' (0xA0),'255' (0xFF),Read,ACK
1.039141000000000,31,'160' (0xA0),'255' (0xFF),Read,ACK
1.039165500000000,31,'160' (0xA0),'255' (0xFF),Read,ACK
1.039189500000000,31,'160' (0xA0),'255' (0xFF),Read,ACK
1.039213500000000,31,'160' (0xA0),'255' (0xFF),Read,ACK
1.039238000000000,31,'160' (0xA0),'255' (0xFF),Read,ACK
1.039262000000000,31,'160' (0xA0),'255' (0xFF),Read,ACK
1.039286500000000,31,'160' (0xA0),'255' (0xFF),Read,ACK
1.039310500000000,31,'160' (0xA0),'255' (0xFF),Read,ACK
1.039335000000000,31,'160' (0xA0),'255' (0xFF),Read,ACK
1.039359000000000,31,'160' (0xA0),'255' (0xFF),Read,ACK
1.039383500000000,31,'160' (0xA0),'255' (0xFF),Read,NAK
1.040770000000000,32,'160' (0xA0),'2' (0x02),Write,ACK
1.040795000000000,32,'160' (0xA0),'208' (0xD0),Write,ACK
1.051563000000000,33,'160' (0xA0),# (0x23),Read,ACK
1.051587000000000,33,'160' (0xA0),'2' (0x02),Read,ACK
1.051611500000000,33,'160' (0xA0),1 (0x31),Read,ACK
1.051636500000000,33,'160' (0xA0),2 (0x32),Read,ACK
1.051661000000000,33,'160' (0xA0),3 (0x33),Read,ACK
1.051685000000000,33,'160' (0xA0),4 (0x34),Read,NAK
1.052672000000000,34,'160' (0xA0),'2' (0x02),Write,ACK
1.052696500000000,34,'160' (0xA0),'208' (0xD0),Write,ACK
1.063461500000000,35,'160' (0xA0),# (0x23),Read,ACK
1.063486000000000,35,'160' (0xA0),'2' (0x02),Read,ACK
1.063510000000000,35,'160' (0xA0),1 (0x31),Read,ACK
1.063535000000000,35,'160' (0xA0),2 (0x32),Read,ACK
1.063559500000000,35,'160' (0xA0),3 (0x33),Read,ACK
1.063583500000000,35,'160' (0xA0),4 (0x34),Read,ACK
1.063608000000000,35,'160' (0xA0),'255' (0xFF),Read,ACK
1.063632500000000,35,'160' (0xA0),'255' (0xFF),Read,ACK
1.063656500000000,35,'160' (0xA0),'255' (0xFF),Read,ACK
1.063681000000000,35,'160' (0xA0),'255' (0xFF),Read,ACK
1.063705000000000,35,'160' (0xA0),'255' (0xFF),Read,ACK
1.063729500000000,35,'160' (0xA0),'255' (0xFF),Read,ACK
1.063755500000000,35,'160' (0xA0),'255' (0xFF),Read,ACK
1.063779500000000,35,'160' (0xA0),'255' (0xFF),Read,ACK
1.063804000000000,35,'160' (0xA0),'255' (0xFF),Read,ACK
1.063828000000000,35,'160' (0xA0),'255' (0xFF),Read,ACK
1.063852500000000,35,'160' (0xA0),'255' (0xFF),Read,ACK
1.063876500000000,35,'160' (0xA0),'0' (0x00),Read,ACK
1.063901000000000,35,'160' (0xA0),'0' (0x00),Read,ACK
1.063925000000000,35,'160' (0xA0),'14' (0x0E),Read,ACK
1.063949500000000,35,'160' (0xA0),'3' (0x03),Read,ACK
1.063973500000000,35,'160' (0xA0),'129' (0x81),Read,ACK
1.063997500000000,35,'160' (0xA0),J (0x4A),Read,ACK
1.064022000000000,35,'160' (0xA0),U (0x55),Read,ACK
1.064046000000000,35,'160' (0xA0),'255' (0xFF),Read,ACK
1.064070500000000,35,'160' (0xA0),'255' (0xFF),Read,ACK
1.064094500000000,35,'160' (0xA0),'255' (0xFF),Read,ACK
1.064119000000000,35,'160' (0xA0),'255' (0xFF),Read,ACK
1.064143000000000,35,'160' (0xA0),'255' (0xFF),Read,ACK
1.064167500000000,35,'160' (0xA0),'255' (0xFF),Read,ACK
1.064191500000000,35,'160' (0xA0),'255' (0xFF),Read,ACK
1.064216000000000,35,'160' (0xA0),'255' (0xFF),Read,ACK
1.064240000000000,35,'160' (0xA0),'255' (0xFF),Read,ACK
1.064264500000000,35,'160' (0xA0),'0' (0x00),Read,ACK
1.064288500000000,35,'160' (0xA0),'0' (0x00),Read,ACK
1.064313000000000,35,'160' (0xA0),'12' (0x0C),Read,ACK
1.064337000000000,35,'160' (0xA0),'7' (0x07),Read,ACK
1.064361500000000,35,'160' (0xA0),'129' (0x81),Read,ACK
1.064385500000000,35,'160' (0xA0),'8' (0x08),Read,ACK
1.064410000000000,35,'160' (0xA0),'5' (0x05),Read,ACK
1.064434000000000,35,'160' (0xA0),'149' (0x95),Read,ACK
1.064458500000000,35,'160' (0xA0),' ' (0x20),Read,ACK
1.064482500000000,35,'160' (0xA0),W (0x57),Read,ACK
1.064506500000000,35,'160' (0xA0),'247' (0xF7),Read,ACK
1.064531000000000,35,'160' (0xA0),'255' (0xFF),Read,ACK
1.064555000000000,35,'160' (0xA0),'255' (0xFF),Read,ACK
1.064579500000000,35,'160' (0xA0),'255' (0xFF),Read,ACK
1.064603500000000,35,'160' (0xA0),'255' (0xFF),Read,ACK
1.064628000000000,35,'160' (0xA0),'255' (0xFF),Read,ACK
1.064652000000000,35,'160' (0xA0),'0' (0x00),Read,ACK
1.064676500000000,35,'160' (0xA0),'0' (0x00),Read,ACK
1.064700500000000,35,'160' (0xA0),'3' (0x03),Read,ACK
1.064725000000000,35,'160' (0xA0),'7' (0x07),Read,ACK
1.064749000000000,35,'160' (0xA0),'129' (0x81),Read,ACK
1.064773500000000,35,'160' (0xA0),'8' (0x08),Read,ACK
1.064797500000000,35,'160' (0xA0),'150' (0x96),Read,ACK
1.064822000000000,35,'160' (0xA0)," (0x22),Read,ACK
1.064846000000000,35,'160' (0xA0),i (0x69),Read,ACK
1.064870500000000,35,'160' (0xA0),$ (0x24),Read,ACK
1.064894500000000,35,'160' (0xA0),'241' (0xF1),Read,ACK
1.064919000000000,35,'160' (0xA0),'255' (0xFF),Read,ACK
1.064943000000000,35,'160' (0xA0),'255' (0xFF),Read,ACK
1.064967000000000,35,'160' (0xA0),'255' (0xFF),Read,ACK
1.064991500000000,35,'160' (0xA0),'255' (0xFF),Read,ACK
1.065015500000000,35,'160' (0xA0),'255' (0xFF),Read,ACK
1.065040000000000,35,'160' (0xA0),'0' (0x00),Read,ACK
1.065064000000000,35,'160' (0xA0),'0' (0x00),Read,ACK
1.065088500000000,35,'160' (0xA0),'4' (0x04),Read,ACK
1.065112500000000,35,'160' (0xA0),'7' (0x07),Read,ACK
1.065137000000000,35,'160' (0xA0),'129' (0x81),Read,ACK
1.065161000000000,35,'160' (0xA0),'8' (0x08),Read,ACK
1.065185500000000,35,'160' (0xA0),V (0x56),Read,ACK
1.065209500000000,35,'160' (0xA0)," (0x22),Read,ACK
1.065234000000000,35,'160' (0xA0),'148' (0x94),Read,ACK
1.065258000000000,35,'160' (0xA0),'147' (0x93),Read,ACK
1.065282500000000,35,'160' (0xA0),'243' (0xF3),Read,ACK
1.065306500000000,35,'160' (0xA0),'255' (0xFF),Read,ACK
1.065331000000000,35,'160' (0xA0),'255' (0xFF),Read,ACK
1.065355000000000,35,'160' (0xA0),'255' (0xFF),Read,ACK
1.065379500000000,35,'160' (0xA0),'255' (0xFF),Read,ACK
1.065403500000000,35,'160' (0xA0),'255' (0xFF),Read,ACK
1.065428000000000,35,'160' (0xA0),'0' (0x00),Read,ACK
1.065452000000000,35,'160' (0xA0),'0' (0x00),Read,ACK
1.065476000000000,35,'160' (0xA0),\t (0x09),Read,ACK
1.065500500000000,35,'160' (0xA0),'4' (0x04),Read,ACK
1.065524500000000,35,'160' (0xA0),'129' (0x81),Read,ACK
1.065549000000000,35,'160' (0xA0),B (0x42),Read,ACK
1.065573000000000,35,'160' (0xA0),9 (0x39),Read,ACK
1.065597500000000,35,'160' (0xA0),9 (0x39),Read,ACK
1.065621500000000,35,'160' (0xA0),'255' (0xFF),Read,ACK
1.065646000000000,35,'160' (0xA0),'255' (0xFF),Read,ACK
1.065670000000000,35,'160' (0xA0),'255' (0xFF),Read,ACK
1.065694500000000,35,'160' (0xA0),'255' (0xFF),Read,ACK
1.065718500000000,35,'160' (0xA0),'255' (0xFF),Read,ACK
1.065743000000000,35,'160' (0xA0),'255' (0xFF),Read,ACK
1.065767000000000,35,'160' (0xA0),'255' (0xFF),Read,ACK
1.065791500000000,35,'160' (0xA0),'255' (0xFF),Read,ACK
1.065815500000000,35,'160' (0xA0),'0' (0x00),Read,ACK
1.065840000000000,35,'160' (0xA0),'0' (0x00),Read,ACK
1.065864000000000,35,'160' (0xA0),'6' (0x06),Read,ACK
1.065888500000000,35,'160' (0xA0),'7' (0x07),Read,ACK
1.065912500000000,35,'160' (0xA0),'145' (0x91),Read,ACK
1.065936500000000,35,'160' (0xA0),'131' (0x83),Read,ACK
1.065961000000000,35,'160' (0xA0),` (0x60),Read,ACK
1.065985000000000,35,'160' (0xA0),w (0x77),Read,ACK
1.066009500000000,35,'160' (0xA0),'145' (0x91),Read,ACK
1.066033500000000,35,'160' (0xA0),7 (0x37),Read,ACK
1.066058000000000,35,'160' (0xA0),7 (0x37),Read,ACK
1.066082000000000,35,'160' (0xA0),'255' (0xFF),Read,ACK
1.066106500000000,35,'160' (0xA0),'255' (0xFF),Read,ACK
1.066130500000000,35,'160' (0xA0),'255' (0xFF),Read,ACK
1.066155000000000,35,'160' (0xA0),'255' (0xFF),Read,ACK
1.066179000000000,35,'160' (0xA0),'255' (0xFF),Read,ACK
1.066203500000000,35,'160' (0xA0),'0' (0x00),Read,ACK
1.066227500000000,35,'160' (0xA0),'0' (0x00),Read,ACK
1.066252000000000,35,'160' (0xA0),'7' (0x07),Read,ACK
1.066276000000000,35,'160' (0xA0),'7' (0x07),Read,ACK
1.066300500000000,35,'160' (0xA0),'129' (0x81),Read,ACK
1.066324500000000,35,'160' (0xA0),'8' (0x08),Read,ACK
1.066349000000000,35,'160' (0xA0),v (0x76),Read,ACK
1.066373000000000,35,'160' (0xA0),'7' (0x07),Read,ACK
1.066397500000000,35,'160' (0xA0),s (0x73),Read,ACK
1.066421500000000,35,'160' (0xA0),E (0x45),Read,ACK
1.066445500000000,35,'160' (0xA0),'242' (0xF2),Read,ACK
1.066470000000000,35,'160' (0xA0),'255' (0xFF),Read,ACK
1.066494000000000,35,'160' (0xA0),'255' (0xFF),Read,ACK
1.066518500000000,35,'160' (0xA0),'255' (0xFF),Read,ACK
1.066542500000000,35,'160' (0xA0),'255' (0xFF),Read,ACK
1.066567000000000,35,'160' (0xA0),'255' (0xFF),Read,ACK
1.066591000000000,35,'160' (0xA0),'255' (0xFF),Read,ACK
1.066615500000000,35,'160' (0xA0),'255' (0xFF),Read,ACK
1.066639500000000,35,'160' (0xA0),'255' (0xFF),Read,ACK
1.066664000000000,35,'160' (0xA0),'255' (0xFF),Read,ACK
1.066688000000000,35,'160' (0xA0),'255' (0xFF),Read,ACK
1.066712500000000,35,'160' (0xA0),'255' (0xFF),Read,ACK
1.066736500000000,35,'160' (0xA0),'255' (0xFF),Read,ACK
1.066761000000000,35,'160' (0xA0),'255' (0xFF),Read,ACK
1.066785000000000,35,'160' (0xA0),'255' (0xFF),Read,ACK
1.066809500000000,35,'160' (0xA0),'255' (0xFF),Read,ACK
1.066833500000000,35,'160' (0xA0),'255' (0xFF),Read,ACK
1.066858000000000,35,'160' (0xA0),'255' (0xFF),Read,ACK
1.066882000000000,35,'160' (0xA0),'255' (0xFF),Read,ACK
1.066906500000000,35,'160' (0xA0),'255' (0xFF),Read,ACK
1.066930500000000,35,'160' (0xA0),'255' (0xFF),Read,ACK
1.066954500000000,35,'160' (0xA0),'255' (0xFF),Read,ACK
1.066979000000000,35,'160' (0xA0),'255' (0xFF),Read,ACK
1.067003000000000,35,'160' (0xA0),'255' (0xFF),Read,ACK
1.067027500000000,35,'160' (0xA0),'255' (0xFF),Read,ACK
1.067051500000000,35,'160' (0xA0),'255' (0xFF),Read,ACK
1.067076000000000,35,'160' (0xA0),'255' (0xFF),Read,ACK
1.067100000000000,35,'160' (0xA0),'255' (0xFF),Read,ACK
1.067124500000000,35,'160' (0xA0),'255' (0xFF),Read,ACK
1.067148500000000,35,'160' (0xA0),'255' (0xFF),Read,ACK
1.067173000000000,35,'160' (0xA0),'255' (0xFF),Read,ACK
1.067197000000000,35,'160' (0xA0),'255' (0xFF),Read,ACK
1.067221500000000,35,'160' (0xA0),'255' (0xFF),Read,ACK
1.067245500000000,35,'160' (0xA0),'255' (0xFF),Read,ACK
1.067270000000000,35,'160' (0xA0),'255' (0xFF),Read,ACK
1.067294000000000,35,'160' (0xA0),'255' (0xFF),Read,ACK
1.067318500000000,35,'160' (0xA0),'255' (0xFF),Read,ACK
1.067342500000000,35,'160' (0xA0),'255' (0xFF),Read,ACK
1.067367000000000,35,'160' (0xA0),'255' (0xFF),Read,ACK
1.067391000000000,35,'160' (0xA0),'255' (0xFF),Read,ACK
1.067415000000000,35,'160' (0xA0),'255' (0xFF),Read,ACK
1.067439500000000,35,'160' (0xA0),'255' (0xFF),Read,ACK
1.067463500000000,35,'160' (0xA0),'255' (0xFF),Read,ACK
1.067488000000000,35,'160' (0xA0),'255' (0xFF),Read,ACK
1.067512000000000,35,'160' (0xA0),'255' (0xFF),Read,ACK
1.067536500000000,35,'160' (0xA0),'255' (0xFF),Read,ACK
1.067560500000000,35,'160' (0xA0),'255' (0xFF),Read,ACK
1.067585000000000,35,'160' (0xA0),'255' (0xFF),Read,ACK
1.067609000000000,35,'160' (0xA0),'255' (0xFF),Read,ACK
1.067633500000000,35,'160' (0xA0),'255' (0xFF),Read,ACK
1.067657500000000,35,'160' (0xA0),'255' (0xFF),Read,ACK
1.067682000000000,35,'160' (0xA0),'255' (0xFF),Read,ACK
1.067706000000000,35,'160' (0xA0),'255' (0xFF),Read,NAK
1.069093500000000,36,'160' (0xA0),'4' (0x04),Write,ACK
1.069118500000000,36,'160' (0xA0),'192' (0xC0),Write,ACK
1.079889500000000,37,'160' (0xA0),d (0x64),Read,ACK
1.079914000000000,37,'160' (0xA0),'2' (0x02),Read,ACK
1.079938000000000,37,'160' (0xA0),1 (0x31),Read,ACK
1.079963000000000,37,'160' (0xA0),2 (0x32),Read,ACK
1.079987500000000,37,'160' (0xA0),3 (0x33),Read,ACK
1.080011500000000,37,'160' (0xA0),4 (0x34),Read,NAK
1.080940500000000,38,'160' (0xA0),'4' (0x04),Write,ACK
1.080965500000000,38,'160' (0xA0),'192' (0xC0),Write,ACK
1.091727000000000,39,'160' (0xA0),d (0x64),Read,ACK
1.091751500000000,39,'160' (0xA0),'2' (0x02),Read,ACK
1.091775500000000,39,'160' (0xA0),1 (0x31),Read,ACK
1.091800500000000,39,'160' (0xA0),2 (0x32),Read,ACK
1.091825000000000,39,'160' (0xA0),3 (0x33),Read,ACK
1.091849000000000,39,'160' (0xA0),4 (0x34),Read,ACK
1.091873500000000,39,'160' (0xA0),\t (0x09),Read,ACK
1.091898000000000,39,'160' (0xA0),'0' (0x00),Read,ACK
1.091922000000000,39,'160' (0xA0),'0' (0x00),Read,ACK
1.091946500000000,39,'160' (0xA0),'0' (0x00),Read,ACK
1.091970500000000,39,'160' (0xA0),'0' (0x00),Read,ACK
1.091995000000000,39,'160' (0xA0),'0' (0x00),Read,ACK
1.092020500000000,39,'160' (0xA0),'0' (0x00),Read,ACK
1.092045000000000,39,'160' (0xA0),'0' (0x00),Read,ACK
1.092069500000000,39,'160' (0xA0),'0' (0x00),Read,ACK
1.092093500000000,39,'160' (0xA0),'0' (0x00),Read,ACK
1.092118000000000,39,'160' (0xA0),'255' (0xFF),Read,ACK
1.092142000000000,39,'160' (0xA0),'0' (0x00),Read,ACK
1.092166000000000,39,'160' (0xA0),'0' (0x00),Read,ACK
1.092190500000000,39,'160' (0xA0),'0' (0x00),Read,ACK
1.092214500000000,39,'160' (0xA0),'3' (0x03),Read,ACK
1.092239000000000,39,'160' (0xA0),'129' (0x81),Read,ACK
1.092263000000000,39,'160' (0xA0),'17' (0x11),Read,ACK
1.092287500000000,39,'160' (0xA0),'242' (0xF2),Read,ACK
1.092311500000000,39,'160' (0xA0),'255' (0xFF),Read,ACK
1.092336000000000,39,'160' (0xA0),'255' (0xFF),Read,ACK
1.092360000000000,39,'160' (0xA0),'255' (0xFF),Read,ACK
1.092384500000000,39,'160' (0xA0),'255' (0xFF),Read,ACK
1.092408500000000,39,'160' (0xA0),'255' (0xFF),Read,ACK
1.092433000000000,39,'160' (0xA0),'255' (0xFF),Read,ACK
1.092457000000000,39,'160' (0xA0),'255' (0xFF),Read,ACK
1.092481500000000,39,'160' (0xA0),'255' (0xFF),Read,ACK
1.092505500000000,39,'160' (0xA0),'255' (0xFF),Read,ACK
1.092530000000000,39,'160' (0xA0),'255' (0xFF),Read,ACK
1.092554000000000,39,'160' (0xA0),'255' (0xFF),Read,ACK
1.092578500000000,39,'160' (0xA0),'255' (0xFF),Read,ACK
1.092602500000000,39,'160' (0xA0),'255' (0xFF),Read,ACK
1.092627000000000,39,'160' (0xA0),'255' (0xFF),Read,ACK
1.092651000000000,39,'160' (0xA0),'255' (0xFF),Read,ACK
1.092675000000000,39,'160' (0xA0),'255' (0xFF),Read,ACK
1.092699500000000,39,'160' (0xA0),'255' (0xFF),Read,ACK
1.092723500000000,39,'160' (0xA0),'255' (0xFF),Read,ACK
1.092748000000000,39,'160' (0xA0),'255' (0xFF),Read,ACK
1.092772000000000,39,'160' (0xA0),'255' (0xFF),Read,ACK
1.092796500000000,39,'160' (0xA0),'255' (0xFF),Read,ACK
1.092820500000000,39,'160' (0xA0),'255' (0xFF),Read,ACK
1.092845000000000,39,'160' (0xA0),'255' (0xFF),Read,ACK
1.092869000000000,39,'160' (0xA0),'0' (0x00),Read,ACK
1.092893500000000,39,'160' (0xA0),'255' (0xFF),Read,ACK
1.092917500000000,39,'160' (0xA0),'0' (0x00),Read,ACK
1.092942000000000,39,'160' (0xA0),'0' (0x00),Read,ACK
1.092966000000000,39,'160' (0xA0),'0' (0x00),Read,ACK
1.092990500000000,39,'160' (0xA0),'255' (0xFF),Read,ACK
1.093014500000000,39,'160' (0xA0),'255' (0xFF),Read,ACK
1.093039000000000,39,'160' (0xA0),'255' (0xFF),Read,ACK
1.093063000000000,39,'160' (0xA0),'255' (0xFF),Read,ACK
1.093087500000000,39,'160' (0xA0),'255' (0xFF),Read,ACK
1.093111500000000,39,'160' (0xA0),'255' (0xFF),Read,ACK
1.093135500000000,39,'160' (0xA0),'255' (0xFF),Read,ACK
1.093160000000000,39,'160' (0xA0),'255' (0xFF),Read,ACK
1.093184000000000,39,'160' (0xA0),'255' (0xFF),Read,ACK
1.093208500000000,39,'160' (0xA0),'255' (0xFF),Read,ACK
1.093232500000000,39,'160' (0xA0),'255' (0xFF),Read,ACK
1.093257000000000,39,'160' (0xA0),'255' (0xFF),Read,ACK
1.093281000000000,39,'160' (0xA0),'255' (0xFF),Read,ACK
1.093305500000000,39,'160' (0xA0),'255' (0xFF),Read,ACK
1.093329500000000,39,'160' (0xA0),'255' (0xFF),Read,ACK
1.093354000000000,39,'160' (0xA0),'255' (0xFF),Read,ACK
1.093378000000000,39,'160' (0xA0),'255' (0xFF),Read,ACK
1.093402500000000,39,'160' (0xA0),'255' (0xFF),Read,ACK
1.093426500000000,39,'160' (0xA0),'255' (0xFF),Read,ACK
1.093451000000000,39,'160' (0xA0),'255' (0xFF),Read,ACK
1.093475000000000,39,'160' (0xA0),'255' (0xFF),Read,ACK
1.093499500000000,39,'160' (0xA0),'255' (0xFF),Read,ACK
1.093523500000000,39,'160' (0xA0),'255' (0xFF),Read,ACK
1.093548000000000,39,'160' (0xA0),'255' (0xFF),Read,ACK
1.093572000000000,39,'160' (0xA0),'255' (0xFF),Read,ACK
1.093596500000000,39,'160' (0xA0),'255' (0xFF),Read,ACK
1.093620500000000,39,'160' (0xA0),'255' (0xFF),Read,ACK
1.093644500000000,39,'160' (0xA0),'0' (0x00),Read,ACK
1.093669000000000,39,'160' (0xA0),'255' (0xFF),Read,ACK
1.093693000000000,39,'160' (0xA0),'0' (0x00),Read,ACK
1.093717500000000,39,'160' (0xA0),'0' (0x00),Read,ACK
1.093741500000000,39,'160' (0xA0),'0' (0x00),Read,ACK
1.093766000000000,39,'160' (0xA0),'255' (0xFF),Read,ACK
1.093790000000000,39,'160' (0xA0),'255' (0xFF),Read,ACK
1.093814500000000,39,'160' (0xA0),'255' (0xFF),Read,ACK
1.093838500000000,39,'160' (0xA0),'255' (0xFF),Read,ACK
1.093863000000000,39,'160' (0xA0),'255' (0xFF),Read,ACK
1.093887000000000,39,'160' (0xA0),'255' (0xFF),Read,ACK
1.093911500000000,39,'160' (0xA0),'255' (0xFF),Read,ACK
1.093935500000000,39,'160' (0xA0),'255' (0xFF),Read,ACK
1.093960000000000,39,'160' (0xA0),'255' (0xFF),Read,ACK
1.093984000000000,39,'160' (0xA0),'255' (0xFF),Read,ACK
1.094008500000000,39,'160' (0xA0),'255' (0xFF),Read,ACK
1.094032500000000,39,'160' (0xA0),'255' (0xFF),Read,ACK
1.094057000000000,39,'160' (0xA0),'255' (0xFF),Read,ACK
1.094081000000000,39,'160' (0xA0),'255' (0xFF),Read,ACK
1.094105000000000,39,'160' (0xA0),'255' (0xFF),Read,ACK
1.094129500000000,39,'160' (0xA0),'255' (0xFF),Read,ACK
1.094153500000000,39,'160' (0xA0),'255' (0xFF),Read,ACK
1.094178000000000,39,'160' (0xA0),'255' (0xFF),Read,ACK
1.094202000000000,39,'160' (0xA0),'255' (0xFF),Read,ACK
1.094226500000000,39,'160' (0xA0),'255' (0xFF),Read,ACK
1.094250500000000,39,'160' (0xA0),'255' (0xFF),Read,ACK
1.094275000000000,39,'160' (0xA0),'255' (0xFF),Read,ACK
1.094299000000000,39,'160' (0xA0),'255' (0xFF),Read,ACK
1.094323500000000,39,'160' (0xA0),'255' (0xFF),Read,ACK
1.094347500000000,39,'160' (0xA0),'255' (0xFF),Read,ACK
1.094372000000000,39,'160' (0xA0),'255' (0xFF),Read,ACK
1.094396000000000,39,'160' (0xA0),'255' (0xFF),Read,ACK
1.094420500000000,39,'160' (0xA0),'0' (0x00),Read,ACK
1.094444500000000,39,'160' (0xA0),'255' (0xFF),Read,ACK
1.094469000000000,39,'160' (0xA0),'0' (0x00),Read,ACK
1.094493000000000,39,'160' (0xA0),'0' (0x00),Read,ACK
1.094517500000000,39,'160' (0xA0),'0' (0x00),Read,ACK
1.094541500000000,39,'160' (0xA0),'255' (0xFF),Read,ACK
1.094566000000000,39,'160' (0xA0),'255' (0xFF),Read,ACK
1.094590000000000,39,'160' (0xA0),'255' (0xFF),Read,ACK
1.094614000000000,39,'160' (0xA0),'255' (0xFF),Read,ACK
1.094638500000000,39,'160' (0xA0),'255' (0xFF),Read,ACK
1.094662500000000,39,'160' (0xA0),'255' (0xFF),Read,ACK
1.094687000000000,39,'160' (0xA0),'255' (0xFF),Read,ACK
1.094711000000000,39,'160' (0xA0),'255' (0xFF),Read,ACK
1.094735500000000,39,'160' (0xA0),'255' (0xFF),Read,ACK
1.094759500000000,39,'160' (0xA0),'255' (0xFF),Read,ACK
1.094784000000000,39,'160' (0xA0),'255' (0xFF),Read,ACK
1.094808000000000,39,'160' (0xA0),'255' (0xFF),Read,ACK
1.094832500000000,39,'160' (0xA0),'255' (0xFF),Read,ACK
1.094856500000000,39,'160' (0xA0),'255' (0xFF),Read,ACK
1.094881000000000,39,'160' (0xA0),'255' (0xFF),Read,ACK
1.094905000000000,39,'160' (0xA0),'255' (0xFF),Read,ACK
1.094929500000000,39,'160' (0xA0),'255' (0xFF),Read,ACK
1.094953500000000,39,'160' (0xA0),'255' (0xFF),Read,ACK
1.094978000000000,39,'160' (0xA0),'255' (0xFF),Read,ACK
1.095002000000000,39,'160' (0xA0),'255' (0xFF),Read,ACK
1.095026500000000,39,'160' (0xA0),'255' (0xFF),Read,ACK
1.095050500000000,39,'160' (0xA0),'255' (0xFF),Read,ACK
1.095074500000000,39,'160' (0xA0),'255' (0xFF),Read,ACK
1.095099000000000,39,'160' (0xA0),'255' (0xFF),Read,ACK
1.095123000000000,39,'160' (0xA0),'255' (0xFF),Read,ACK
1.095147500000000,39,'160' (0xA0),'255' (0xFF),Read,ACK
1.095171500000000,39,'160' (0xA0),'255' (0xFF),Read,ACK
1.095196000000000,39,'160' (0xA0),'0' (0x00),Read,ACK
1.095220000000000,39,'160' (0xA0),'255' (0xFF),Read,ACK
1.095244500000000,39,'160' (0xA0),'0' (0x00),Read,ACK
1.095268500000000,39,'160' (0xA0),'0' (0x00),Read,ACK
1.095293000000000,39,'160' (0xA0),'0' (0x00),Read,ACK
1.095317000000000,39,'160' (0xA0),'255' (0xFF),Read,ACK
1.095341500000000,39,'160' (0xA0),'255' (0xFF),Read,ACK
1.095365500000000,39,'160' (0xA0),'255' (0xFF),Read,ACK
1.095390000000000,39,'160' (0xA0),'255' (0xFF),Read,ACK
1.095414000000000,39,'160' (0xA0),'255' (0xFF),Read,ACK
1.095438500000000,39,'160' (0xA0),'255' (0xFF),Read,ACK
1.095462500000000,39,'160' (0xA0),'255' (0xFF),Read,ACK
1.095487000000000,39,'160' (0xA0),'255' (0xFF),Read,ACK
1.095511000000000,39,'160' (0xA0),'255' (0xFF),Read,ACK
1.095535500000000,39,'160' (0xA0),'255' (0xFF),Read,ACK
1.095559500000000,39,'160' (0xA0),'255' (0xFF),Read,ACK
1.095583500000000,39,'160' (0xA0),'255' (0xFF),Read,ACK
1.095608000000000,39,'160' (0xA0),'255' (0xFF),Read,ACK
1.095632000000000,39,'160' (0xA0),'255' (0xFF),Read,ACK
1.095656500000000,39,'160' (0xA0),'255' (0xFF),Read,ACK
1.095680500000000,39,'160' (0xA0),'255' (0xFF),Read,ACK
1.095705000000000,39,'160' (0xA0),'255' (0xFF),Read,ACK
1.095729000000000,39,'160' (0xA0),'255' (0xFF),Read,ACK
1.095753500000000,39,'160' (0xA0),'255' (0xFF),Read,ACK
1.095777500000000,39,'160' (0xA0),'255' (0xFF),Read,ACK
1.095802000000000,39,'160' (0xA0),'255' (0xFF),Read,ACK
1.095826000000000,39,'160' (0xA0),'255' (0xFF),Read,ACK
1.095850500000000,39,'160' (0xA0),'255' (0xFF),Read,ACK
1.095874500000000,39,'160' (0xA0),'255' (0xFF),Read,ACK
1.095899000000000,39,'160' (0xA0),'255' (0xFF),Read,ACK
1.095923000000000,39,'160' (0xA0),'255' (0xFF),Read,ACK
1.095947500000000,39,'160' (0xA0),'255' (0xFF),Read,ACK
1.095971500000000,39,'160' (0xA0),'0' (0x00),Read,ACK
1.095996000000000,39,'160' (0xA0),'255' (0xFF),Read,ACK
1.096020000000000,39,'160' (0xA0),'0' (0x00),Read,ACK
1.096044500000000,39,'160' (0xA0),'0' (0x00),Read,ACK
1.096068500000000,39,'160' (0xA0),'0' (0x00),Read,ACK
1.096092500000000,39,'160' (0xA0),'255' (0xFF),Read,ACK
1.096117000000000,39,'160' (0xA0),'255' (0xFF),Read,ACK
1.096141000000000,39,'160' (0xA0),'255' (0xFF),Read,ACK
1.096165500000000,39,'160' (0xA0),'255' (0xFF),Read,ACK
1.096189500000000,39,'160' (0xA0),'255' (0xFF),Read,ACK
1.096214000000000,39,'160' (0xA0),'255' (0xFF),Read,ACK
1.096238000000000,39,'160' (0xA0),'255' (0xFF),Read,ACK
1.096262500000000,39,'160' (0xA0),'255' (0xFF),Read,ACK
1.096286500000000,39,'160' (0xA0),'255' (0xFF),Read,ACK
1.096311000000000,39,'160' (0xA0),'255' (0xFF),Read,ACK
1.096335000000000,39,'160' (0xA0),'255' (0xFF),Read,ACK
1.096359500000000,39,'160' (0xA0),'255' (0xFF),Read,ACK
1.096383500000000,39,'160' (0xA0),'255' (0xFF),Read,ACK
1.096408000000000,39,'160' (0xA0),'255' (0xFF),Read,ACK
1.096432000000000,39,'160' (0xA0),'255' (0xFF),Read,ACK
1.096456500000000,39,'160' (0xA0),'255' (0xFF),Read,ACK
1.096480500000000,39,'160' (0xA0),'255' (0xFF),Read,ACK
1.096505000000000,39,'160' (0xA0),'255' (0xFF),Read,ACK
1.096529000000000,39,'160' (0xA0),'255' (0xFF),Read,ACK
1.096553000000000,39,'160' (0xA0),'255' (0xFF),Read,ACK
1.096577500000000,39,'160' (0xA0),'255' (0xFF),Read,ACK
1.096601500000000,39,'160' (0xA0),'255' (0xFF),Read,ACK
1.096626000000000,39,'160' (0xA0),'255' (0xFF),Read,ACK
1.096650000000000,39,'160' (0xA0),'255' (0xFF),Read,ACK
1.096674500000000,39,'160' (0xA0),'255' (0xFF),Read,ACK
1.096698500000000,39,'160' (0xA0),'255' (0xFF),Read,ACK
1.096723000000000,39,'160' (0xA0),'255' (0xFF),Read,ACK
1.096747000000000,39,'160' (0xA0),'0' (0x00),Read,ACK
1.096771500000000,39,'160' (0xA0),'255' (0xFF),Read,ACK
1.096795500000000,39,'160' (0xA0),'0' (0x00),Read,ACK
1.096820000000000,39,'160' (0xA0),'0' (0x00),Read,ACK
1.096844000000000,39,'160' (0xA0),'0' (0x00),Read,ACK
1.096868500000000,39,'160' (0xA0),'255' (0xFF),Read,ACK
1.096892500000000,39,'160' (0xA0),'255' (0xFF),Read,ACK
1.096917000000000,39,'160' (0xA0),'255' (0xFF),Read,ACK
1.096941000000000,39,'160' (0xA0),'255' (0xFF),Read,ACK
1.096965500000000,39,'160' (0xA0),'255' (0xFF),Read,ACK
1.096989500000000,39,'160' (0xA0),'255' (0xFF),Read,ACK
1.097014000000000,39,'160' (0xA0),'255' (0xFF),Read,ACK
1.097038000000000,39,'160' (0xA0),'255' (0xFF),Read,ACK
1.097062000000000,39,'160' (0xA0),'255' (0xFF),Read,ACK
1.097086500000000,39,'160' (0xA0),'255' (0xFF),Read,ACK
1.097110500000000,39,'160' (0xA0),'255' (0xFF),Read,ACK
1.097135000000000,39,'160' (0xA0),'255' (0xFF),Read,ACK
1.097159000000000,39,'160' (0xA0),'255' (0xFF),Read,ACK
1.097183500000000,39,'160' (0xA0),'255' (0xFF),Read,ACK
1.097207500000000,39,'160' (0xA0),'255' (0xFF),Read,ACK
1.097232000000000,39,'160' (0xA0),'255' (0xFF),Read,ACK
1.097256000000000,39,'160' (0xA0),'255' (0xFF),Read,ACK
1.097280500000000,39,'160' (0xA0),'255' (0xFF),Read,ACK
1.097304500000000,39,'160' (0xA0),'255' (0xFF),Read,ACK
1.097329000000000,39,'160' (0xA0),'255' (0xFF),Read,ACK
1.097353000000000,39,'160' (0xA0),'255' (0xFF),Read,ACK
1.097377500000000,39,'160' (0xA0),'255' (0xFF),Read,ACK
1.097401500000000,39,'160' (0xA0),'255' (0xFF),Read,ACK
1.097426000000000,39,'160' (0xA0),'255' (0xFF),Read,ACK
1.097450000000000,39,'160' (0xA0),'255' (0xFF),Read,ACK
1.097474500000000,39,'160' (0xA0),'255' (0xFF),Read,ACK
1.097498500000000,39,'160' (0xA0),'255' (0xFF),Read,ACK
1.097522500000000,39,'160' (0xA0),'0' (0x00),Read,ACK
1.097547000000000,39,'160' (0xA0),'255' (0xFF),Read,ACK
1.097571000000000,39,'160' (0xA0),'0' (0x00),Read,ACK
1.097595500000000,39,'160' (0xA0),'0' (0x00),Read,ACK
1.097619500000000,39,'160' (0xA0),'0' (0x00),Read,ACK
1.097644000000000,39,'160' (0xA0),'255' (0xFF),Read,ACK
1.097668000000000,39,'160' (0xA0),'255' (0xFF),Read,ACK
1.097692500000000,39,'160' (0xA0),'255' (0xFF),Read,ACK
1.097716500000000,39,'160' (0xA0),'255' (0xFF),Read,ACK
1.097741000000000,39,'160' (0xA0),'255' (0xFF),Read,ACK
1.097765000000000,39,'160' (0xA0),'255' (0xFF),Read,ACK
1.097789500000000,39,'160' (0xA0),'255' (0xFF),Read,ACK
1.097813500000000,39,'160' (0xA0),'255' (0xFF),Read,ACK
1.097838000000000,39,'160' (0xA0),'255' (0xFF),Read,ACK
1.097862000000000,39,'160' (0xA0),'255' (0xFF),Read,ACK
1.097886500000000,39,'160' (0xA0),'255' (0xFF),Read,ACK
1.097910500000000,39,'160' (0xA0),'255' (0xFF),Read,ACK
1.097935000000000,39,'160' (0xA0),'255' (0xFF),Read,ACK
1.097959000000000,39,'160' (0xA0),'255' (0xFF),Read,ACK
1.097983500000000,39,'160' (0xA0),'255' (0xFF),Read,ACK
1.098007500000000,39,'160' (0xA0),'255' (0xFF),Read,ACK
1.098031500000000,39,'160' (0xA0),'255' (0xFF),Read,ACK
1.098056000000000,39,'160' (0xA0),'255' (0xFF),Read,ACK
1.098080000000000,39,'160' (0xA0),'255' (0xFF),Read,ACK
1.098104500000000,39,'160' (0xA0),'255' (0xFF),Read,ACK
1.098128500000000,39,'160' (0xA0),'255' (0xFF),Read,ACK
1.098153000000000,39,'160' (0xA0),'255' (0xFF),Read,ACK
1.098177000000000,39,'160' (0xA0),'255' (0xFF),Read,ACK
1.098201500000000,39,'160' (0xA0),'255' (0xFF),Read,ACK
1.098225500000000,39,'160' (0xA0),'255' (0xFF),Read,ACK
1.098250000000000,39,'160' (0xA0),'255' (0xFF),Read,ACK
1.098274000000000,39,'160' (0xA0),'255' (0xFF),Read,ACK
1.098298500000000,39,'160' (0xA0),'0' (0x00),Read,ACK
1.098322500000000,39,'160' (0xA0),'255' (0xFF),Read,ACK
1.098347000000000,39,'160' (0xA0),'0' (0x00),Read,ACK
1.098371000000000,39,'160' (0xA0),'0' (0x00),Read,ACK
1.098395500000000,39,'160' (0xA0),'0' (0x00),Read,ACK
1.098419500000000,39,'160' (0xA0),'255' (0xFF),Read,ACK
1.098444000000000,39,'160' (0xA0),'255' (0xFF),Read,ACK
1.098468000000000,39,'160' (0xA0),'255' (0xFF),Read,ACK
1.098492000000000,39,'160' (0xA0),'255' (0xFF),Read,ACK
1.098516500000000,39,'160' (0xA0),'255' (0xFF),Read,ACK
1.098540500000000,39,'160' (0xA0),'255' (0xFF),Read,ACK
1.098565000000000,39,'160' (0xA0),'255' (0xFF),Read,ACK
1.098589000000000,39,'160' (0xA0),'255' (0xFF),Read,ACK
1.098613500000000,39,'160' (0xA0),'255' (0xFF),Read,ACK
1.098637500000000,39,'160' (0xA0),'255' (0xFF),Read,ACK
1.098662000000000,39,'160' (0xA0),'255' (0xFF),Read,ACK
1.098686000000000,39,'160' (0xA0),'255' (0xFF),Read,ACK
1.098710500000000,39,'160' (0xA0),'255' (0xFF),Read,ACK
1.098734500000000,39,'160' (0xA0),'255' (0xFF),Read,ACK
1.098759000000000,39,'160' (0xA0),'255' (0xFF),Read,ACK
1.098783000000000,39,'160' (0xA0),'255' (0xFF),Read,ACK
1.098807500000000,39,'160' (0xA0),'255' (0xFF),Read,ACK
1.098831500000000,39,'160' (0xA0),'255' (0xFF),Read,ACK
1.098856000000000,39,'160' (0xA0),'255' (0xFF),Read,ACK
1.098880000000000,39,'160' (0xA0),'255' (0xFF),Read,ACK
1.098904500000000,39,'160' (0xA0),'255' (0xFF),Read,ACK
1.098928500000000,39,'160' (0xA0),'255' (0xFF),Read,ACK
1.098953000000000,39,'160' (0xA0),'255' (0xFF),Read,ACK
1.098977000000000,39,'160' (0xA0),'255' (0xFF),Read,ACK
1.099001000000000,39,'160' (0xA0),'255' (0xFF),Read,ACK
1.099025500000000,39,'160' (0xA0),'255' (0xFF),Read,ACK
1.099049500000000,39,'160' (0xA0),'255' (0xFF),Read,ACK
1.099074000000000,39,'160' (0xA0),'0' (0x00),Read,NAK
1.100713000000000,40,'160' (0xA0),'5' (0x05),Write,ACK
1.100737500000000,40,'160' (0xA0),'240' (0xF0),Write,ACK
1.111506000000000,41,'160' (0xA0),'229' (0xE5),Read,ACK
1.111530000000000,41,'160' (0xA0),'3' (0x03),Read,ACK
1.111554500000000,41,'160' (0xA0),1 (0x31),Read,ACK
1.111579500000000,41,'160' (0xA0),2 (0x32),Read,ACK
1.111603500000000,41,'160' (0xA0),3 (0x33),Read,ACK
1.111628000000000,41,'160' (0xA0),4 (0x34),Read,NAK
1.112557000000000,42,'160' (0xA0),'5' (0x05),Write,ACK
1.112581500000000,42,'160' (0xA0),'240' (0xF0),Write,ACK
1.123343000000000,43,'160' (0xA0),'229' (0xE5),Read,ACK
1.123367500000000,43,'160' (0xA0),'3' (0x03),Read,ACK
1.123391500000000,43,'160' (0xA0),1 (0x31),Read,ACK
1.123417000000000,43,'160' (0xA0),2 (0x32),Read,ACK
1.123441000000000,43,'160' (0xA0),3 (0x33),Read,ACK
1.123465000000000,43,'160' (0xA0),4 (0x34),Read,ACK
1.123489500000000,43,'160' (0xA0),'6' (0x06),Read,ACK
1.123514000000000,43,'160' (0xA0),'7' (0x07),Read,ACK
1.123538500000000,43,'160' (0xA0),'8' (0x08),Read,ACK
1.123562500000000,43,'160' (0xA0),'0' (0x00),Read,ACK
1.123586500000000,43,'160' (0xA0),'0' (0x00),Read,ACK
1.123611000000000,43,'160' (0xA0),'0' (0x00),Read,ACK
1.123637000000000,43,'160' (0xA0),'0' (0x00),Read,ACK
1.123661000000000,43,'160' (0xA0),'0' (0x00),Read,ACK
1.123685500000000,43,'160' (0xA0),'0' (0x00),Read,ACK
1.123709500000000,43,'160' (0xA0),'0' (0x00),Read,ACK
1.123734000000000,43,'160' (0xA0),'1' (0x01),Read,ACK
1.123758000000000,43,'160' (0xA0),'1' (0x01),Read,ACK
1.123782500000000,43,'160' (0xA0),'1' (0x01),Read,ACK
1.123806500000000,43,'160' (0xA0),'0' (0x00),Read,ACK
1.123831000000000,43,'160' (0xA0),'0' (0x00),Read,ACK
1.123855000000000,43,'160' (0xA0),'0' (0x00),Read,ACK
1.123879500000000,43,'160' (0xA0),'0' (0x00),Read,ACK
1.123903500000000,43,'160' (0xA0),'0' (0x00),Read,ACK
1.123928000000000,43,'160' (0xA0),'0' (0x00),Read,ACK
1.123952000000000,43,'160' (0xA0),'0' (0x00),Read,NAK
1.125024000000000,44,'160' (0xA0),'6' (0x06),Write,ACK
1.125049000000000,44,'160' (0xA0),' ' (0x20),Write,ACK
1.135810500000000,45,'160' (0xA0),'255' (0xFF),Read,ACK
1.135835000000000,45,'160' (0xA0),'255' (0xFF),Read,ACK
1.135859000000000,45,'160' (0xA0),'255' (0xFF),Read,ACK
1.135884000000000,45,'160' (0xA0),'255' (0xFF),Read,ACK
1.135908500000000,45,'160' (0xA0),'255' (0xFF),Read,ACK
1.135932500000000,45,'160' (0xA0),'255' (0xFF),Read,NAK
1.136892000000000,46,'160' (0xA0),'7' (0x07),Write,ACK
1.136916500000000,46,'160' (0xA0),'16' (0x10),Write,ACK
1.147691000000000,47,'160' (0xA0),'255' (0xFF),Read,ACK
1.147715500000000,47,'160' (0xA0),'255' (0xFF),Read,ACK
1.147739500000000,47,'160' (0xA0),'255' (0xFF),Read,ACK
1.147765000000000,47,'160' (0xA0),'255' (0xFF),Read,ACK
1.147789000000000,47,'160' (0xA0),'255' (0xFF),Read,ACK
1.147813500000000,47,'160' (0xA0),'255' (0xFF),Read,NAK
1.148825500000000,48,'160' (0xA0),'7' (0x07),Write,ACK
1.148850500000000,48,'160' (0xA0),` (0x60),Write,ACK
1.159605500000000,49,'160' (0xA0),'29' (0x1D),Read,ACK
1.159630000000000,49,'160' (0xA0),'3' (0x03),Read,ACK
1.159654000000000,49,'160' (0xA0),1 (0x31),Read,ACK
1.159679000000000,49,'160' (0xA0),2 (0x32),Read,ACK
1.159703500000000,49,'160' (0xA0),3 (0x33),Read,ACK
1.159727500000000,49,'160' (0xA0),4 (0x34),Read,NAK
1.160652500000000,50,'160' (0xA0),'7' (0x07),Write,ACK
1.160677500000000,50,'160' (0xA0),` (0x60),Write,ACK
1.171445500000000,51,'160' (0xA0),'29' (0x1D),Read,ACK
1.171470000000000,51,'160' (0xA0),'3' (0x03),Read,ACK
1.171494000000000,51,'160' (0xA0),1 (0x31),Read,ACK
1.171519000000000,51,'160' (0xA0),2 (0x32),Read,ACK
1.171543500000000,51,'160' (0xA0),3 (0x33),Read,ACK
1.171567500000000,51,'160' (0xA0),4 (0x34),Read,ACK
1.171592000000000,51,'160' (0xA0),'0' (0x00),Read,ACK
1.171616500000000,51,'160' (0xA0),'0' (0x00),Read,ACK
1.171640500000000,51,'160' (0xA0),'0' (0x00),Read,ACK
1.171665000000000,51,'160' (0xA0),\t (0x09),Read,ACK
1.171689000000000,51,'160' (0xA0),\t (0x09),Read,ACK
1.171713500000000,51,'160' (0xA0),\t (0x09),Read,ACK
1.171739500000000,51,'160' (0xA0),'0' (0x00),Read,ACK
1.171763500000000,51,'160' (0xA0),'0' (0x00),Read,ACK
1.171788000000000,51,'160' (0xA0),'0' (0x00),Read,ACK
1.171812000000000,51,'160' (0xA0),'0' (0x00),Read,ACK
1.171836500000000,51,'160' (0xA0),'170' (0xAA),Read,ACK
1.171860500000000,51,'160' (0xA0),'1' (0x01),Read,ACK
1.171885000000000,51,'160' (0xA0),'8' (0x08),Read,ACK
1.171909000000000,51,'160' (0xA0),'5' (0x05),Read,ACK
1.171933500000000,51,'160' (0xA0),'7' (0x07),Read,ACK
1.171957500000000,51,'160' (0xA0),'208' (0xD0),Read,ACK
1.171981500000000,51,'160' (0xA0),'11' (0x0B),Read,ACK
1.172006000000000,51,'160' (0xA0),'4' (0x04),Read,ACK
1.172030000000000,51,'160' (0xA0),'1' (0x01),Read,ACK
1.172054500000000,51,'160' (0xA0),\r (0x0D),Read,ACK
1.172078500000000,51,'160' (0xA0),'6' (0x06),Read,ACK
1.172103000000000,51,'160' (0xA0),3 (0x33),Read,ACK
1.172127000000000,51,'160' (0xA0),'20' (0x14),Read,ACK
1.172151500000000,51,'160' (0xA0),'0' (0x00),Read,ACK
1.172175500000000,51,'160' (0xA0),'0' (0x00),Read,ACK
1.172200000000000,51,'160' (0xA0),'0' (0x00),Read,ACK
1.172224000000000,51,'160' (0xA0),'170' (0xAA),Read,ACK
1.172248500000000,51,'160' (0xA0),'2' (0x02),Read,ACK
1.172272500000000,51,'160' (0xA0),'3' (0x03),Read,ACK
1.172297000000000,51,'160' (0xA0),'5' (0x05),Read,ACK
1.172321000000000,51,'160' (0xA0),'7' (0x07),Read,ACK
1.172345500000000,51,'160' (0xA0),'208' (0xD0),Read,ACK
1.172369500000000,51,'160' (0xA0),'11' (0x0B),Read,ACK
1.172394000000000,51,'160' (0xA0),'2' (0x02),Read,ACK
1.172418000000000,51,'160' (0xA0),'21' (0x15),Read,ACK
1.172442000000000,51,'160' (0xA0),/ (0x2F),Read,ACK
1.172466500000000,51,'160' (0xA0),'0' (0x00),Read,ACK
1.172490500000000,51,'160' (0xA0),'0' (0x00),Read,ACK
1.172515000000000,51,'160' (0xA0),'0' (0x00),Read,ACK
1.172539000000000,51,'160' (0xA0),'0' (0x00),Read,ACK
1.172563500000000,51,'160' (0xA0),'0' (0x00),Read,ACK
1.172587500000000,51,'160' (0xA0),'0' (0x00),Read,ACK
1.172612000000000,51,'160' (0xA0),J (0x4A),Read,ACK
1.172636000000000,51,'160' (0xA0),H (0x48),Read,ACK
1.172660500000000,51,'160' (0xA0),) (0x29),Read,ACK
1.172684500000000,51,'160' (0xA0),COMMA (0x2C),Read,ACK
1.172709000000000,51,'160' (0xA0),'7' (0x07),Read,ACK
1.172733000000000,51,'160' (0xA0),'208' (0xD0),Read,ACK
1.172757500000000,51,'160' (0xA0),C (0x43),Read,ACK
1.172781500000000,51,'160' (0xA0),'1' (0x01),Read,ACK
1.172806000000000,51,'160' (0xA0),'4' (0x04),Read,ACK
1.172830000000000,51,'160' (0xA0),B (0x42),Read,ACK
1.172854500000000,51,'160' (0xA0),K (0x4B),Read,ACK
1.172878500000000,51,'160' (0xA0),. (0x2E),Read,ACK
1.172903000000000,51,'160' (0xA0),'7' (0x07),Read,ACK
1.172927000000000,51,'160' (0xA0),'208' (0xD0),Read,ACK
1.172951000000000,51,'160' (0xA0),'0' (0x00),Read,ACK
1.172975500000000,51,'160' (0xA0),'0' (0x00),Read,ACK
1.172999500000000,51,'160' (0xA0),+ (0x2B),Read,ACK
1.173024000000000,51,'160' (0xA0),'11' (0x0B),Read,ACK
1.173048000000000,51,'160' (0xA0),'25' (0x19),Read,ACK
1.173072500000000,51,'160' (0xA0),Y (0x59),Read,ACK
1.173096500000000,51,'160' (0xA0),? (0x3F),Read,ACK
1.173121000000000,51,'160' (0xA0),2 (0x32),Read,ACK
1.173145000000000,51,'160' (0xA0),V (0x56),Read,ACK
1.173169500000000,51,'160' (0xA0),Y (0x59),Read,ACK
1.173193500000000,51,'160' (0xA0),'0' (0x00),Read,ACK
1.173218000000000,51,'160' (0xA0),'0' (0x00),Read,ACK
1.173242000000000,51,'160' (0xA0),'0' (0x00),Read,ACK
1.173266500000000,51,'160' (0xA0),'0' (0x00),Read,ACK
1.173290500000000,51,'160' (0xA0),'0' (0x00),Read,ACK
1.173315000000000,51,'160' (0xA0),'0' (0x00),Read,ACK
1.173339000000000,51,'160' (0xA0),'0' (0x00),Read,ACK
1.173363500000000,51,'160' (0xA0),'0' (0x00),Read,ACK
1.173387500000000,51,'160' (0xA0),'0' (0x00),Read,ACK
1.173411500000000,51,'160' (0xA0),'0' (0x00),Read,ACK
1.173436000000000,51,'160' (0xA0),'0' (0x00),Read,ACK
1.173460000000000,51,'160' (0xA0),'0' (0x00),Read,ACK
1.173484500000000,51,'160' (0xA0),'0' (0x00),Read,ACK
1.173508500000000,51,'160' (0xA0),'0' (0x00),Read,ACK
1.173533000000000,51,'160' (0xA0),'0' (0x00),Read,ACK
1.173557000000000,51,'160' (0xA0),'0' (0x00),Read,ACK
1.173581500000000,51,'160' (0xA0),'0' (0x00),Read,ACK
1.173605500000000,51,'160' (0xA0),'0' (0x00),Read,ACK
1.173630000000000,51,'160' (0xA0),'0' (0x00),Read,ACK
1.173654000000000,51,'160' (0xA0),'0' (0x00),Read,ACK
1.173678500000000,51,'160' (0xA0),'0' (0x00),Read,ACK
1.173702500000000,51,'160' (0xA0),'0' (0x00),Read,ACK
1.173727000000000,51,'160' (0xA0),'0' (0x00),Read,ACK
1.173751000000000,51,'160' (0xA0),'0' (0x00),Read,NAK
1.174966000000000,52,'160' (0xA0),'8' (0x08),Write,ACK
1.174991000000000,52,'160' (0xA0),'16' (0x10),Write,ACK
1.185765500000000,53,'160' (0xA0),'29' (0x1D),Read,ACK
1.185789500000000,53,'160' (0xA0),'2' (0x02),Read,ACK
1.185814000000000,53,'160' (0xA0),1 (0x31),Read,ACK
1.185839000000000,53,'160' (0xA0),2 (0x32),Read,ACK
1.185863500000000,53,'160' (0xA0),3 (0x33),Read,ACK
1.185887500000000,53,'160' (0xA0),4 (0x34),Read,NAK
1.186816500000000,54,'160' (0xA0),'8' (0x08),Write,ACK
1.186841000000000,54,'160' (0xA0),'16' (0x10),Write,ACK
1.197603000000000,55,'160' (0xA0),'29' (0x1D),Read,ACK
1.197627000000000,55,'160' (0xA0),'2' (0x02),Read,ACK
1.197651500000000,55,'160' (0xA0),1 (0x31),Read,ACK
1.197676500000000,55,'160' (0xA0),2 (0x32),Read,ACK
1.197700500000000,55,'160' (0xA0),3 (0x33),Read,ACK
1.197725000000000,55,'160' (0xA0),4 (0x34),Read,ACK
1.197749000000000,55,'160' (0xA0),'154' (0x9A),Read,ACK
1.197773500000000,55,'160' (0xA0),'188' (0xBC),Read,ACK
1.197798000000000,55,'160' (0xA0),'156' (0x9C),Read,ACK
1.197822000000000,55,'160' (0xA0),'190' (0xBE),Read,ACK
1.197846500000000,55,'160' (0xA0),5 (0x35),Read,ACK
1.197870500000000,55,'160' (0xA0),\r (0x0D),Read,ACK
1.197896500000000,55,'160' (0xA0),'16' (0x10),Read,ACK
1.197921000000000,55,'160' (0xA0),'14' (0x0E),Read,ACK
1.197945000000000,55,'160' (0xA0),'17' (0x11),Read,ACK
1.197969500000000,55,'160' (0xA0),'17' (0x11),Read,ACK
1.197993500000000,55,'160' (0xA0),'23' (0x17),Read,ACK
1.198018000000000,55,'160' (0xA0),'17' (0x11),Read,ACK
1.198042000000000,55,'160' (0xA0),'23' (0x17),Read,ACK
1.198066500000000,55,'160' (0xA0),1 (0x31),Read,ACK
1.198090500000000,55,'160' (0xA0),c (0x63),Read,ACK
1.198115000000000,55,'160' (0xA0),| (0x7C),Read,ACK
1.198139000000000,55,'160' (0xA0),'149' (0x95),Read,ACK
1.198163500000000,55,'160' (0xA0),'17' (0x11),Read,ACK
1.198187500000000,55,'160' (0xA0),'2' (0x02),Read,ACK
1.198212000000000,55,'160' (0xA0),'1' (0x01),Read,ACK
1.198236000000000,55,'160' (0xA0),'14' (0x0E),Read,ACK
1.198260000000000,55,'160' (0xA0),'22' (0x16),Read,ACK
1.198284500000000,55,'160' (0xA0),'14' (0x0E),Read,ACK
1.198308500000000,55,'160' (0xA0),'0' (0x00),Read,ACK
1.198333000000000,55,'160' (0xA0),'255' (0xFF),Read,ACK
1.198357000000000,55,'160' (0xA0),'11' (0x0B),Read,ACK
1.198381500000000,55,'160' (0xA0),'19' (0x13),Read,ACK
1.198405500000000,55,'160' (0xA0),'0' (0x00),Read,ACK
1.198430000000000,55,'160' (0xA0),'0' (0x00),Read,ACK
1.198454000000000,55,'160' (0xA0),'0' (0x00),Read,ACK
1.198478500000000,55,'160' (0xA0),'0' (0x00),Read,ACK
1.198502500000000,55,'160' (0xA0),'0' (0x00),Read,ACK
1.198527000000000,55,'160' (0xA0),'2' (0x02),Read,ACK
1.198551000000000,55,'160' (0xA0),F (0x46),Read,ACK
1.198575500000000,55,'160' (0xA0),'2' (0x02),Read,ACK
1.198599500000000,55,'160' (0xA0),'140' (0x8C),Read,ACK
1.198624000000000,55,'160' (0xA0),'2' (0x02),Read,ACK
1.198648000000000,55,'160' (0xA0),'190' (0xBE),Read,ACK
1.198672500000000,55,'160' (0xA0),'3' (0x03),Read,ACK
1.198696500000000,55,'160' (0xA0)," (0x22),Read,ACK
1.198721000000000,55,'160' (0xA0),\r (0x0D),Read,ACK
1.198745000000000,55,'160' (0xA0),'6' (0x06),Read,ACK
1.198769000000000,55,'160' (0xA0),'1' (0x01),Read,ACK
1.198793500000000,55,'160' (0xA0),'16' (0x10),Read,ACK
1.198817500000000,55,'160' (0xA0),'20' (0x14),Read,ACK
1.198842000000000,55,'160' (0xA0),\t (0x09),Read,ACK
1.198866000000000,55,'160' (0xA0),'253' (0xFD),Read,ACK
1.198890500000000,55,'160' (0xA0),'252' (0xFC),Read,ACK
1.198914500000000,55,'160' (0xA0),'6' (0x06),Read,ACK
1.198939000000000,55,'160' (0xA0),'8' (0x08),Read,ACK
1.198963000000000,55,'160' (0xA0),'0' (0x00),Read,ACK
1.198987500000000,55,'160' (0xA0),'0' (0x00),Read,ACK
1.199011500000000,55,'160' (0xA0),'0' (0x00),Read,ACK
1.199036000000000,55,'160' (0xA0),'0' (0x00),Read,ACK
1.199060000000000,55,'160' (0xA0),'0' (0x00),Read,ACK
1.199084500000000,55,'160' (0xA0),'255' (0xFF),Read,ACK
1.199108500000000,55,'160' (0xA0),'3' (0x03),Read,ACK
1.199133000000000,55,'160' (0xA0),'140' (0x8C),Read,ACK
1.199157000000000,55,'160' (0xA0),'0' (0x00),Read,ACK
1.199181500000000,55,'160' (0xA0),\n (0x0A),Read,ACK
1.199205500000000,55,'160' (0xA0),'0' (0x00),Read,ACK
1.199229500000000,55,'160' (0xA0),'0' (0x00),Read,ACK
1.199254000000000,55,'160' (0xA0),'0' (0x00),Read,ACK
1.199278000000000,55,'160' (0xA0),'8' (0x08),Read,ACK
1.199302500000000,55,'160' (0xA0),'3' (0x03),Read,ACK
1.199326500000000,55,'160' (0xA0),# (0x23),Read,ACK
1.199351000000000,55,'160' (0xA0),'0' (0x00),Read,ACK
1.199375000000000,55,'160' (0xA0),'14' (0x0E),Read,ACK
1.199399500000000,55,'160' (0xA0),'0' (0x00),Read,ACK
1.199423500000000,55,'160' (0xA0),'0' (0x00),Read,ACK
1.199448000000000,55,'160' (0xA0),'0' (0x00),Read,ACK
1.199472000000000,55,'160' (0xA0),'15' (0x0F),Read,ACK
1.199496500000000,55,'160' (0xA0),'2' (0x02),Read,ACK
1.199520500000000,55,'160' (0xA0),z (0x7A),Read,ACK
1.199545000000000,55,'160' (0xA0),'0' (0x00),Read,ACK
1.199569000000000,55,'160' (0xA0),'18' (0x12),Read,ACK
1.199593500000000,55,'160' (0xA0),'0' (0x00),Read,ACK
1.199617500000000,55,'160' (0xA0),'0' (0x00),Read,ACK
1.199642000000000,55,'160' (0xA0),'0' (0x00),Read,ACK
1.199666000000000,55,'160' (0xA0),'15' (0x0F),Read,ACK
1.199690500000000,55,'160' (0xA0),'1' (0x01),Read,ACK
1.199714500000000,55,'160' (0xA0),'251' (0xFB),Read,ACK
1.199738500000000,55,'160' (0xA0),'0' (0x00),Read,ACK
1.199763000000000,55,'160' (0xA0),'19' (0x13),Read,ACK
1.199787000000000,55,'160' (0xA0),'0' (0x00),Read,ACK
1.199811500000000,55,'160' (0xA0),'0' (0x00),Read,ACK
1.199835500000000,55,'160' (0xA0),'0' (0x00),Read,ACK
1.199860000000000,55,'160' (0xA0),'15' (0x0F),Read,ACK
1.199884000000000,55,'160' (0xA0),'1' (0x01),Read,ACK
1.199908500000000,55,'160' (0xA0),'133' (0x85),Read,ACK
1.199932500000000,55,'160' (0xA0),'0' (0x00),Read,ACK
1.199957000000000,55,'160' (0xA0),'21' (0x15),Read,ACK
1.199981000000000,55,'160' (0xA0),'0' (0x00),Read,ACK
1.200005500000000,55,'160' (0xA0),'0' (0x00),Read,ACK
1.200029500000000,55,'160' (0xA0),'0' (0x00),Read,ACK
1.200054000000000,55,'160' (0xA0),'15' (0x0F),Read,ACK
1.200078000000000,55,'160' (0xA0),'1' (0x01),Read,ACK
1.200102500000000,55,'160' (0xA0),6 (0x36),Read,ACK
1.200126500000000,55,'160' (0xA0),'0' (0x00),Read,ACK
1.200151000000000,55,'160' (0xA0),'21' (0x15),Read,ACK
1.200175000000000,55,'160' (0xA0),'0' (0x00),Read,ACK
1.200199000000000,55,'160' (0xA0),'0' (0x00),Read,ACK
1.200223500000000,55,'160' (0xA0),'0' (0x00),Read,ACK
1.200247500000000,55,'160' (0xA0),'15' (0x0F),Read,ACK
1.200272000000000,55,'160' (0xA0),'0' (0x00),Read,ACK
1.200296000000000,55,'160' (0xA0),'244' (0xF4),Read,ACK
1.200320500000000,55,'160' (0xA0),'0' (0x00),Read,ACK
1.200344500000000,55,'160' (0xA0),'22' (0x16),Read,ACK
1.200369000000000,55,'160' (0xA0),'0' (0x00),Read,ACK
1.200393000000000,55,'160' (0xA0),'0' (0x00),Read,ACK
1.200417500000000,55,'160' (0xA0),'0' (0x00),Read,ACK
1.200441500000000,55,'160' (0xA0),'15' (0x0F),Read,ACK
1.200466000000000,55,'160' (0xA0),'0' (0x00),Read,ACK
1.200490000000000,55,'160' (0xA0),'191' (0xBF),Read,ACK
1.200514500000000,55,'160' (0xA0),'0' (0x00),Read,ACK
1.200538500000000,55,'160' (0xA0),'19' (0x13),Read,ACK
1.200563000000000,55,'160' (0xA0),'0' (0x00),Read,ACK
1.200587000000000,55,'160' (0xA0),'0' (0x00),Read,ACK
1.200611500000000,55,'160' (0xA0),'0' (0x00),Read,ACK
1.200635500000000,55,'160' (0xA0),'15' (0x0F),Read,ACK
1.200660000000000,55,'160' (0xA0),'0' (0x00),Read,ACK
1.200684000000000,55,'160' (0xA0),'149' (0x95),Read,ACK
1.200708000000000,55,'160' (0xA0),'0' (0x00),Read,ACK
1.200732500000000,55,'160' (0xA0),'19' (0x13),Read,ACK
1.200756500000000,55,'160' (0xA0),'0' (0x00),Read,ACK
1.200781000000000,55,'160' (0xA0),'0' (0x00),Read,ACK
1.200805000000000,55,'160' (0xA0),'0' (0x00),Read,ACK
1.200829500000000,55,'160' (0xA0),'15' (0x0F),Read,ACK
1.200853500000000,55,'160' (0xA0),'0' (0x00),Read,ACK
1.200878000000000,55,'160' (0xA0),v (0x76),Read,ACK
1.200902000000000,55,'160' (0xA0),'0' (0x00),Read,ACK
1.200926500000000,55,'160' (0xA0),'21' (0x15),Read,ACK
1.200950500000000,55,'160' (0xA0),'0' (0x00),Read,ACK
1.200975000000000,55,'160' (0xA0),'0' (0x00),Read,ACK
1.200999000000000,55,'160' (0xA0),'0' (0x00),Read,ACK
1.201023500000000,55,'160' (0xA0),'15' (0x0F),Read,ACK
1.201047500000000,55,'160' (0xA0),'0' (0x00),Read,ACK
1.201072000000000,55,'160' (0xA0),] (0x5D),Read,ACK
1.201096000000000,55,'160' (0xA0),'0' (0x00),Read,ACK
1.201120500000000,55,'160' (0xA0),'21' (0x15),Read,ACK
1.201144500000000,55,'160' (0xA0),'0' (0x00),Read,ACK
1.201168500000000,55,'160' (0xA0),'0' (0x00),Read,ACK
1.201193000000000,55,'160' (0xA0),'0' (0x00),Read,ACK
1.201217000000000,55,'160' (0xA0),'15' (0x0F),Read,ACK
1.201241500000000,55,'160' (0xA0),'0' (0x00),Read,ACK
1.201265500000000,55,'160' (0xA0),L (0x4C),Read,ACK
1.201290000000000,55,'160' (0xA0),'0' (0x00),Read,ACK
1.201314000000000,55,'160' (0xA0),'21' (0x15),Read,ACK
1.201338500000000,55,'160' (0xA0),'0' (0x00),Read,ACK
1.201362500000000,55,'160' (0xA0),'0' (0x00),Read,ACK
1.201387000000000,55,'160' (0xA0),'0' (0x00),Read,ACK
1.201411000000000,55,'160' (0xA0),'15' (0x0F),Read,ACK
1.201435500000000,55,'160' (0xA0),'0' (0x00),Read,ACK
1.201459500000000,55,'160' (0xA0),< (0x3C),Read,ACK
1.201484000000000,55,'160' (0xA0),'0' (0x00),Read,ACK
1.201508000000000,55,'160' (0xA0),'21' (0x15),Read,ACK
1.201532500000000,55,'160' (0xA0),'0' (0x00),Read,ACK
1.201556500000000,55,'160' (0xA0),'0' (0x00),Read,ACK
1.201581000000000,55,'160' (0xA0),'0' (0x00),Read,ACK
1.201605000000000,55,'160' (0xA0),'15' (0x0F),Read,ACK
1.201629500000000,55,'160' (0xA0),'0' (0x00),Read,ACK
1.201653500000000,55,'160' (0xA0),. (0x2E),Read,ACK
1.201677500000000,55,'160' (0xA0),'0' (0x00),Read,ACK
1.201702000000000,55,'160' (0xA0),'19' (0x13),Read,ACK
1.201726000000000,55,'160' (0xA0),'0' (0x00),Read,ACK
1.201750500000000,55,'160' (0xA0),'0' (0x00),Read,ACK
1.201774500000000,55,'160' (0xA0),'0' (0x00),Read,ACK
1.201799000000000,55,'160' (0xA0),'15' (0x0F),Read,ACK
1.201823000000000,55,'160' (0xA0),'0' (0x00),Read,ACK
1.201847500000000,55,'160' (0xA0),( (0x28),Read,ACK
1.201871500000000,55,'160' (0xA0),'0' (0x00),Read,ACK
1.201896000000000,55,'160' (0xA0),'17' (0x11),Read,ACK
1.201920000000000,55,'160' (0xA0),'0' (0x00),Read,ACK
1.201944500000000,55,'160' (0xA0),'0' (0x00),Read,ACK
1.201968500000000,55,'160' (0xA0),'0' (0x00),Read,ACK
1.201993000000000,55,'160' (0xA0),'15' (0x0F),Read,ACK
1.202017000000000,55,'160' (0xA0),'0' (0x00),Read,ACK
1.202041500000000,55,'160' (0xA0),% (0x25),Read,ACK
1.202065500000000,55,'160' (0xA0),'0' (0x00),Read,ACK
1.202090000000000,55,'160' (0xA0),% (0x25),Read,ACK
1.202114000000000,55,'160' (0xA0),'0' (0x00),Read,ACK
1.202138000000000,55,'160' (0xA0),'0' (0x00),Read,ACK
1.202162500000000,55,'160' (0xA0),'0' (0x00),Read,ACK
1.202186500000000,55,'160' (0xA0),'15' (0x0F),Read,ACK
1.202211000000000,55,'160' (0xA0),'2' (0x02),Read,ACK
1.202235000000000,55,'160' (0xA0),'206' (0xCE),Read,ACK
1.202259500000000,55,'160' (0xA0),'0' (0x00),Read,ACK
1.202283500000000,55,'160' (0xA0),'11' (0x0B),Read,ACK
1.202308000000000,55,'160' (0xA0),'0' (0x00),Read,ACK
1.202332000000000,55,'160' (0xA0),'0' (0x00),Read,ACK
1.202356500000000,55,'160' (0xA0),'0' (0x00),Read,ACK
1.202380500000000,55,'160' (0xA0),\n (0x0A),Read,ACK
1.202405000000000,55,'160' (0xA0),'2' (0x02),Read,ACK
1.202429000000000,55,'160' (0xA0),Z (0x5A),Read,ACK
1.202453500000000,55,'160' (0xA0),'0' (0x00),Read,ACK
1.202477500000000,55,'160' (0xA0),'15' (0x0F),Read,ACK
1.202502000000000,55,'160' (0xA0),'0' (0x00),Read,ACK
1.202526000000000,55,'160' (0xA0),'0' (0x00),Read,ACK
1.202550500000000,55,'160' (0xA0),'0' (0x00),Read,ACK
1.202574500000000,55,'160' (0xA0),'15' (0x0F),Read,ACK
1.202599000000000,55,'160' (0xA0),'2' (0x02),Read,ACK
1.202623000000000,55,'160' (0xA0),'8' (0x08),Read,ACK
1.202647000000000,55,'160' (0xA0),'0' (0x00),Read,ACK
1.202671500000000,55,'160' (0xA0),'18' (0x12),Read,ACK
1.202695500000000,55,'160' (0xA0),'0' (0x00),Read,ACK
1.202720000000000,55,'160' (0xA0),'0' (0x00),Read,ACK
1.202744000000000,55,'160' (0xA0),'0' (0x00),Read,ACK
1.202768500000000,55,'160' (0xA0),'15' (0x0F),Read,ACK
1.202792500000000,55,'160' (0xA0),'1' (0x01),Read,ACK
1.202817000000000,55,'160' (0xA0),'157' (0x9D),Read,ACK
1.202841000000000,55,'160' (0xA0),'0' (0x00),Read,ACK
1.202865500000000,55,'160' (0xA0),'21' (0x15),Read,ACK
1.202889500000000,55,'160' (0xA0),'0' (0x00),Read,ACK
1.202914000000000,55,'160' (0xA0),'0' (0x00),Read,ACK
1.202938000000000,55,'160' (0xA0),'0' (0x00),Read,ACK
1.202962500000000,55,'160' (0xA0),'15' (0x0F),Read,ACK
1.202986500000000,55,'160' (0xA0),'1' (0x01),Read,ACK
1.203011000000000,55,'160' (0xA0),= (0x3D),Read,ACK
1.203035000000000,55,'160' (0xA0),'0' (0x00),Read,ACK
1.203059500000000,55,'160' (0xA0),'22' (0x16),Read,ACK
1.203083500000000,55,'160' (0xA0),'0' (0x00),Read,ACK
1.203108000000000,55,'160' (0xA0),'0' (0x00),Read,ACK
1.203132000000000,55,'160' (0xA0),'0' (0x00),Read,ACK
1.203156000000000,55,'160' (0xA0),'15' (0x0F),Read,ACK
1.203180500000000,55,'160' (0xA0),'0' (0x00),Read,ACK
1.203204500000000,55,'160' (0xA0),'249' (0xF9),Read,ACK
1.203229000000000,55,'160' (0xA0),'0' (0x00),Read,ACK
1.203253000000000,55,'160' (0xA0),'23' (0x17),Read,ACK
1.203277500000000,55,'160' (0xA0),'0' (0x00),Read,ACK
1.203301500000000,55,'160' (0xA0),'0' (0x00),Read,ACK
1.203326000000000,55,'160' (0xA0),'0' (0x00),Read,ACK
1.203350000000000,55,'160' (0xA0),'15' (0x0F),Read,ACK
1.203374500000000,55,'160' (0xA0),'0' (0x00),Read,ACK
1.203398500000000,55,'160' (0xA0),'193' (0xC1),Read,ACK
1.203423000000000,55,'160' (0xA0),'0' (0x00),Read,ACK
1.203447000000000,55,'160' (0xA0),'25' (0x19),Read,ACK
1.203471500000000,55,'160' (0xA0),'0' (0x00),Read,ACK
1.203495500000000,55,'160' (0xA0),'0' (0x00),Read,ACK
1.203520000000000,55,'160' (0xA0),'0' (0x00),Read,ACK
1.203544000000000,55,'160' (0xA0),'15' (0x0F),Read,ACK
1.203568500000000,55,'160' (0xA0),'0' (0x00),Read,ACK
1.203592500000000,55,'160' (0xA0),'152' (0x98),Read,ACK
1.203616500000000,55,'160' (0xA0),'0' (0x00),Read,ACK
1.203641000000000,55,'160' (0xA0),'20' (0x14),Read,ACK
1.203665000000000,55,'160' (0xA0),'0' (0x00),Read,ACK
1.203689500000000,55,'160' (0xA0),'0' (0x00),Read,ACK
1.203713500000000,55,'160' (0xA0),'0' (0x00),Read,ACK
1.203738000000000,55,'160' (0xA0),'15' (0x0F),Read,ACK
1.203762000000000,55,'160' (0xA0),'0' (0x00),Read,ACK
1.203786500000000,55,'160' (0xA0),t (0x74),Read,ACK
1.203810500000000,55,'160' (0xA0),'0' (0x00),Read,ACK
1.203835000000000,55,'160' (0xA0),'20' (0x14),Read,ACK
1.203859000000000,55,'160' (0xA0),'0' (0x00),Read,ACK
1.203883500000000,55,'160' (0xA0),'0' (0x00),Read,ACK
1.203907500000000,55,'160' (0xA0),'0' (0x00),Read,ACK
1.203932000000000,55,'160' (0xA0),'15' (0x0F),Read,ACK
1.203956000000000,55,'160' (0xA0),'0' (0x00),Read,ACK
1.203980500000000,55,'160' (0xA0),] (0x5D),Read,ACK
1.204004500000000,55,'160' (0xA0),'0' (0x00),Read,ACK
1.204029000000000,55,'160' (0xA0),'21' (0x15),Read,ACK
1.204053000000000,55,'160' (0xA0),'0' (0x00),Read,ACK
1.204077500000000,55,'160' (0xA0),'0' (0x00),Read,ACK
1.204101500000000,55,'160' (0xA0),'0' (0x00),Read,ACK
1.204125500000000,55,'160' (0xA0),'15' (0x0F),Read,ACK
1.204150000000000,55,'160' (0xA0),'0' (0x00),Read,ACK
1.204174000000000,55,'160' (0xA0),K (0x4B),Read,ACK
1.204198500000000,55,'160' (0xA0),'0' (0x00),Read,ACK
1.204222500000000,55,'160' (0xA0),'21' (0x15),Read,ACK
1.204247000000000,55,'160' (0xA0),'0' (0x00),Read,ACK
1.204271000000000,55,'160' (0xA0),'0' (0x00),Read,ACK
1.204295500000000,55,'160' (0xA0),'0' (0x00),Read,ACK
1.204319500000000,55,'160' (0xA0),'15' (0x0F),Read,ACK
1.204344000000000,55,'160' (0xA0),'0' (0x00),Read,ACK
1.204368000000000,55,'160' (0xA0),< (0x3C),Read,ACK
1.204392500000000,55,'160' (0xA0),'0' (0x00),Read,ACK
1.204416500000000,55,'160' (0xA0),'22' (0x16),Read,ACK
1.204441000000000,55,'160' (0xA0),'0' (0x00),Read,ACK
1.204465000000000,55,'160' (0xA0),'0' (0x00),Read,ACK
1.204489500000000,55,'160' (0xA0),'0' (0x00),Read,ACK
1.204513500000000,55,'160' (0xA0),'15' (0x0F),Read,ACK
1.204538000000000,55,'160' (0xA0),'0' (0x00),Read,ACK
1.204562000000000,55,'160' (0xA0),- (0x2D),Read,ACK
1.204586000000000,55,'160' (0xA0),'0' (0x00),Read,ACK
1.204610500000000,55,'160' (0xA0),'22' (0x16),Read,ACK
1.204634500000000,55,'160' (0xA0),'0' (0x00),Read,ACK
1.204659000000000,55,'160' (0xA0),'0' (0x00),Read,ACK
1.204683000000000,55,'160' (0xA0),'0' (0x00),Read,ACK
1.204707500000000,55,'160' (0xA0),'15' (0x0F),Read,ACK
1.204731500000000,55,'160' (0xA0),'0' (0x00),Read,ACK
1.204756000000000,55,'160' (0xA0),( (0x28),Read,ACK
1.204780000000000,55,'160' (0xA0),'0' (0x00),Read,ACK
1.204804500000000,55,'160' (0xA0),'24' (0x18),Read,ACK
1.204828500000000,55,'160' (0xA0),'0' (0x00),Read,ACK
1.204853000000000,55,'160' (0xA0),'0' (0x00),Read,ACK
1.204877000000000,55,'160' (0xA0),'0' (0x00),Read,ACK
1.204901500000000,55,'160' (0xA0),'15' (0x0F),Read,ACK
1.204925500000000,55,'160' (0xA0),'0' (0x00),Read,ACK
1.204950000000000,55,'160' (0xA0),% (0x25),Read,ACK
1.204974000000000,55,'160' (0xA0),'0' (0x00),Read,ACK
1.204998500000000,55,'160' (0xA0),'24' (0x18),Read,ACK
1.205022500000000,55,'160' (0xA0),'0' (0x00),Read,ACK
1.205047000000000,55,'160' (0xA0),'0' (0x00),Read,ACK
1.205071000000000,55,'160' (0xA0),'0' (0x00),Read,ACK
1.205095000000000,55,'160' (0xA0),'15' (0x0F),Read,ACK
1.205119500000000,55,'160' (0xA0),'16' (0x10),Read,ACK
1.205143500000000,55,'160' (0xA0),'16' (0x10),Read,ACK
1.205168000000000,55,'160' (0xA0),'16' (0x10),Read,ACK
1.205192000000000,55,'160' (0xA0),'16' (0x10),Read,ACK
1.205216500000000,55,'160' (0xA0),'16' (0x10),Read,ACK
1.205240500000000,55,'160' (0xA0),'16' (0x10),Read,ACK
1.205265000000000,55,'160' (0xA0),'16' (0x10),Read,ACK
1.205289000000000,55,'160' (0xA0),'16' (0x10),Read,ACK
1.205313500000000,55,'160' (0xA0),'16' (0x10),Read,ACK
1.205337500000000,55,'160' (0xA0),'17' (0x11),Read,ACK
1.205362000000000,55,'160' (0xA0),'17' (0x11),Read,ACK
1.205386000000000,55,'160' (0xA0),'17' (0x11),Read,ACK
1.205410500000000,55,'160' (0xA0),'18' (0x12),Read,ACK
1.205434500000000,55,'160' (0xA0),'20' (0x14),Read,ACK
1.205459000000000,55,'160' (0xA0),'23' (0x17),Read,ACK
1.205483000000000,55,'160' (0xA0),\t (0x09),Read,ACK
1.205507500000000,55,'160' (0xA0),'16' (0x10),Read,ACK
1.205531500000000,55,'160' (0xA0),'16' (0x10),Read,ACK
1.205555500000000,55,'160' (0xA0),'16' (0x10),Read,ACK
1.205580000000000,55,'160' (0xA0),'16' (0x10),Read,ACK
1.205604000000000,55,'160' (0xA0),'16' (0x10),Read,ACK
1.205628500000000,55,'160' (0xA0),'16' (0x10),Read,ACK
1.205652500000000,55,'160' (0xA0),'16' (0x10),Read,ACK
1.205677000000000,55,'160' (0xA0),'16' (0x10),Read,ACK
1.205701000000000,55,'160' (0xA0),'16' (0x10),Read,ACK
1.205725500000000,55,'160' (0xA0),'16' (0x10),Read,ACK
1.205749500000000,55,'160' (0xA0),'16' (0x10),Read,ACK
1.205774000000000,55,'160' (0xA0),'16' (0x10),Read,ACK
1.205798000000000,55,'160' (0xA0),'17' (0x11),Read,ACK
1.205822500000000,55,'160' (0xA0),'17' (0x11),Read,ACK
1.205846500000000,55,'160' (0xA0),'17' (0x11),Read,ACK
1.205871000000000,55,'160' (0xA0),'16' (0x10),Read,ACK
1.205895000000000,55,'160' (0xA0),'16' (0x10),Read,ACK
1.205919500000000,55,'160' (0xA0),'16' (0x10),Read,ACK
1.205943500000000,55,'160' (0xA0),'16' (0x10),Read,ACK
1.205968000000000,55,'160' (0xA0),'16' (0x10),Read,ACK
1.205992000000000,55,'160' (0xA0),'16' (0x10),Read,ACK
1.206016500000000,55,'160' (0xA0),'16' (0x10),Read,ACK
1.206040500000000,55,'160' (0xA0),'16' (0x10),Read,ACK
1.206064500000000,55,'160' (0xA0),'16' (0x10),Read,ACK
1.206089000000000,55,'160' (0xA0),'15' (0x0F),Read,ACK
1.206113000000000,55,'160' (0xA0),'15' (0x0F),Read,ACK
1.206137500000000,55,'160' (0xA0),'15' (0x0F),Read,ACK
1.206161500000000,55,'160' (0xA0),'16' (0x10),Read,ACK
1.206186000000000,55,'160' (0xA0),'16' (0x10),Read,ACK
1.206210000000000,55,'160' (0xA0),'15' (0x0F),Read,ACK
1.206234500000000,55,'160' (0xA0),'15' (0x0F),Read,ACK
1.206258500000000,55,'160' (0xA0),'16' (0x10),Read,ACK
1.206283000000000,55,'160' (0xA0),'16' (0x10),Read,ACK
1.206307000000000,55,'160' (0xA0),'16' (0x10),Read,ACK
1.206331500000000,55,'160' (0xA0),'16' (0x10),Read,ACK
1.206355500000000,55,'160' (0xA0),'16' (0x10),Read,ACK
1.206380000000000,55,'160' (0xA0),'16' (0x10),Read,ACK
1.206404000000000,55,'160' (0xA0),'16' (0x10),Read,ACK
1.206428500000000,55,'160' (0xA0),'16' (0x10),Read,ACK
1.206452500000000,55,'160' (0xA0),'16' (0x10),Read,ACK
1.206477000000000,55,'160' (0xA0),'16' (0x10),Read,ACK
1.206501000000000,55,'160' (0xA0),'16' (0x10),Read,ACK
1.206525000000000,55,'160' (0xA0),'16' (0x10),Read,ACK
1.206549500000000,55,'160' (0xA0),'15' (0x0F),Read,ACK
1.206573500000000,55,'160' (0xA0),'15' (0x0F),Read,ACK
1.206598000000000,55,'160' (0xA0),'15' (0x0F),Read,ACK
1.206622000000000,55,'160' (0xA0),'246' (0xF6),Read,ACK
1.206646500000000,55,'160' (0xA0),\n (0x0A),Read,ACK
1.206670500000000,55,'160' (0xA0),( (0x28),Read,ACK
1.206695000000000,55,'160' (0xA0),A (0x41),Read,ACK
1.206719000000000,55,'160' (0xA0),'0' (0x00),Read,ACK
1.206743500000000,55,'160' (0xA0),'0' (0x00),Read,ACK
1.206767500000000,55,'160' (0xA0),'0' (0x00),Read,ACK
1.206792000000000,55,'160' (0xA0),'0' (0x00),Read,ACK
1.206816000000000,55,'160' (0xA0),'0' (0x00),Read,ACK
1.206840500000000,55,'160' (0xA0),'0' (0x00),Read,ACK
1.206864500000000,55,'160' (0xA0),'0' (0x00),Read,ACK
1.206889000000000,55,'160' (0xA0),'0' (0x00),Read,ACK
1.206913000000000,55,'160' (0xA0),'0' (0x00),Read,ACK
1.206937500000000,55,'160' (0xA0),'0' (0x00),Read,ACK
1.206961500000000,55,'160' (0xA0),C (0x43),Read,ACK
1.206986000000000,55,'160' (0xA0),'16' (0x10),Read,ACK
1.207010000000000,55,'160' (0xA0),# (0x23),Read,ACK
1.207034000000000,55,'160' (0xA0),'243' (0xF3),Read,ACK
1.207058500000000,55,'160' (0xA0),\r (0x0D),Read,ACK
1.207082500000000,55,'160' (0xA0),'217' (0xD9),Read,ACK
1.207107000000000,55,'160' (0xA0),'1' (0x01),Read,ACK
1.207131000000000,55,'160' (0xA0),\ (0x5C),Read,ACK
1.207155500000000,55,'160' (0xA0),'2' (0x02),Read,ACK
1.207179500000000,55,'160' (0xA0),L (0x4C),Read,ACK
1.207204000000000,55,'160' (0xA0),'0' (0x00),Read,ACK
1.207228000000000,55,'160' (0xA0),'200' (0xC8),Read,ACK
1.207252500000000,55,'160' (0xA0),'14' (0x0E),Read,ACK
1.207276500000000,55,'160' (0xA0),'1' (0x01),Read,ACK
1.207301000000000,55,'160' (0xA0),'255' (0xFF),Read,ACK
1.207325000000000,55,'160' (0xA0),'200' (0xC8),Read,ACK
1.207349500000000,55,'160' (0xA0),'255' (0xFF),Read,ACK
1.207373500000000,55,'160' (0xA0),'200' (0xC8),Read,ACK
1.207398000000000,55,'160' (0xA0),'25' (0x19),Read,ACK
1.207422000000000,55,'160' (0xA0),'2' (0x02),Read,ACK
1.207446500000000,55,'160' (0xA0),'14' (0x0E),Read,ACK
1.207470500000000,55,'160' (0xA0),W (0x57),Read,ACK
1.207494500000000,55,'160' (0xA0),o (0x6F),Read,ACK
1.207519000000000,55,'160' (0xA0),'136' (0x88),Read,ACK
1.207543000000000,55,'160' (0xA0),'161' (0xA1),Read,ACK
1.207567500000000,55,'160' (0xA0),W (0x57),Read,ACK
1.207591500000000,55,'160' (0xA0),'2' (0x02),Read,ACK
1.207616000000000,55,'160' (0xA0),'20' (0x14),Read,ACK
1.207640000000000,55,'160' (0xA0),'2' (0x02),Read,ACK
1.207664500000000,55,'160' (0xA0),n (0x6E),Read,ACK
1.207688500000000,55,'160' (0xA0),'2' (0x02),Read,ACK
1.207713000000000,55,'160' (0xA0),'180' (0xB4),Read,ACK
1.207737000000000,55,'160' (0xA0),'2' (0x02),Read,ACK
1.207761500000000,55,'160' (0xA0),'230' (0xE6),Read,ACK
1.207785500000000,55,'160' (0xA0),'3' (0x03),Read,ACK
1.207810000000000,55,'160' (0xA0),h (0x68),Read,ACK
1.207834000000000,55,'160' (0xA0),'2' (0x02),Read,ACK
1.207858500000000,55,'160' (0xA0),'186' (0xBA),Read,ACK
1.207882500000000,55,'160' (0xA0),'1' (0x01),Read,ACK
1.207907000000000,55,'160' (0xA0),'255' (0xFF),Read,ACK
1.207931000000000,55,'160' (0xA0),'0' (0x00),Read,ACK
1.207955500000000,55,'160' (0xA0),'0' (0x00),Read,ACK
1.207979500000000,55,'160' (0xA0),'0' (0x00),Read,ACK
1.208003500000000,55,'160' (0xA0),< (0x3C),Read,ACK
1.208028000000000,55,'160' (0xA0),'0' (0x00),Read,ACK
1.208052000000000,55,'160' (0xA0),'0' (0x00),Read,ACK
1.208076500000000,55,'160' (0xA0),'0' (0x00),Read,ACK
1.208100500000000,55,'160' (0xA0),2 (0x32),Read,ACK
1.208125000000000,55,'160' (0xA0),'0' (0x00),Read,ACK
1.208149000000000,55,'160' (0xA0),'0' (0x00),Read,ACK
1.208173500000000,55,'160' (0xA0),'255' (0xFF),Read,ACK
1.208197500000000,55,'160' (0xA0),'206' (0xCE),Read,ACK
1.208222000000000,55,'160' (0xA0),'0' (0x00),Read,ACK
1.208246000000000,55,'160' (0xA0),'0' (0x00),Read,ACK
1.208270500000000,55,'160' (0xA0),'255' (0xFF),Read,ACK
1.208294500000000,55,'160' (0xA0),'206' (0xCE),Read,ACK
1.208319000000000,55,'160' (0xA0),'0' (0x00),Read,ACK
1.208343000000000,55,'160' (0xA0),'0' (0x00),Read,ACK
1.208367500000000,55,'160' (0xA0),'0' (0x00),Read,ACK
1.208391500000000,55,'160' (0xA0),'0' (0x00),Read,ACK
1.208416000000000,55,'160' (0xA0),'0' (0x00),Read,ACK
1.208440000000000,55,'160' (0xA0),'0' (0x00),Read,ACK
1.208464500000000,55,'160' (0xA0),'0' (0x00),Read,ACK
1.208488500000000,55,'160' (0xA0),'0' (0x00),Read,ACK
1.208512500000000,55,'160' (0xA0),'0' (0x00),Read,ACK
1.208537000000000,55,'160' (0xA0),'0' (0x00),Read,ACK
1.208561000000000,55,'160' (0xA0),'0' (0x00),Read,ACK
1.208585500000000,55,'160' (0xA0),'0' (0x00),Read,ACK
1.208609500000000,55,'160' (0xA0),'0' (0x00),Read,ACK
1.208634000000000,55,'160' (0xA0),'0' (0x00),Read,ACK
1.208658000000000,55,'160' (0xA0),'0' (0x00),Read,ACK
1.208682500000000,55,'160' (0xA0),'0' (0x00),Read,ACK
1.208706500000000,55,'160' (0xA0),'0' (0x00),Read,ACK
1.208731000000000,55,'160' (0xA0),'0' (0x00),Read,ACK
1.208755000000000,55,'160' (0xA0),'0' (0x00),Read,ACK
1.208779500000000,55,'160' (0xA0),'0' (0x00),Read,ACK
1.208803500000000,55,'160' (0xA0),'0' (0x00),Read,ACK
1.208828000000000,55,'160' (0xA0),'0' (0x00),Read,ACK
1.208852000000000,55,'160' (0xA0),'0' (0x00),Read,ACK
1.208876500000000,55,'160' (0xA0),'0' (0x00),Read,ACK
1.208900500000000,55,'160' (0xA0),'255' (0xFF),Read,ACK
1.208925000000000,55,'160' (0xA0),'254' (0xFE),Read,ACK
1.208949000000000,55,'160' (0xA0),'255' (0xFF),Read,ACK
1.208973000000000,55,'160' (0xA0),'254' (0xFE),Read,ACK
1.208997500000000,55,'160' (0xA0),'255' (0xFF),Read,ACK
1.209021500000000,55,'160' (0xA0),'253' (0xFD),Read,ACK
1.209046000000000,55,'160' (0xA0),'0' (0x00),Read,ACK
1.209070000000000,55,'160' (0xA0),'0' (0x00),Read,ACK
1.209094500000000,55,'160' (0xA0),'0' (0x00),Read,ACK
1.209118500000000,55,'160' (0xA0),'0' (0x00),Read,ACK
1.209143000000000,55,'160' (0xA0),'0' (0x00),Read,ACK
1.209167000000000,55,'160' (0xA0),'0' (0x00),Read,ACK
1.209191500000000,55,'160' (0xA0),'0' (0x00),Read,ACK
1.209215500000000,55,'160' (0xA0),'0' (0x00),Read,ACK
1.209240000000000,55,'160' (0xA0),'0' (0x00),Read,ACK
1.209264000000000,55,'160' (0xA0),'0' (0x00),Read,ACK
1.209288500000000,55,'160' (0xA0),'0' (0x00),Read,ACK
1.209312500000000,55,'160' (0xA0),'0' (0x00),Read,ACK
1.209337000000000,55,'160' (0xA0),'0' (0x00),Read,ACK
1.209361000000000,55,'160' (0xA0),'0' (0x00),Read,ACK
1.209385500000000,55,'160' (0xA0),'0' (0x00),Read,ACK
1.209409500000000,55,'160' (0xA0),'0' (0x00),Read,ACK
1.209434000000000,55,'160' (0xA0),'0' (0x00),Read,ACK
1.209458000000000,55,'160' (0xA0),'0' (0x00),Read,ACK
1.209482000000000,55,'160' (0xA0),'0' (0x00),Read,ACK
1.209506500000000,55,'160' (0xA0),'0' (0x00),Read,ACK
1.209530500000000,55,'160' (0xA0),'0' (0x00),Read,ACK
1.209555000000000,55,'160' (0xA0),'0' (0x00),Read,ACK
1.209579000000000,55,'160' (0xA0),'0' (0x00),Read,ACK
1.209603500000000,55,'160' (0xA0),'0' (0x00),Read,ACK
1.209627500000000,55,'160' (0xA0),'0' (0x00),Read,ACK
1.209652000000000,55,'160' (0xA0),'0' (0x00),Read,ACK
1.209676000000000,55,'160' (0xA0),'0' (0x00),Read,ACK
1.209700500000000,55,'160' (0xA0),'1' (0x01),Read,ACK
1.209724500000000,55,'160' (0xA0),'0' (0x00),Read,ACK
1.209749000000000,55,'160' (0xA0),'2' (0x02),Read,ACK
1.209773000000000,55,'160' (0xA0),'0' (0x00),Read,ACK
1.209797500000000,55,'160' (0xA0),'2' (0x02),Read,ACK
1.209821500000000,55,'160' (0xA0),'0' (0x00),Read,ACK
1.209846000000000,55,'160' (0xA0),'0' (0x00),Read,ACK
1.209870000000000,55,'160' (0xA0),'0' (0x00),Read,ACK
1.209894500000000,55,'160' (0xA0),'0' (0x00),Read,ACK
1.209918500000000,55,'160' (0xA0),'0' (0x00),Read,ACK
1.209942500000000,55,'160' (0xA0),'0' (0x00),Read,ACK
1.209967000000000,55,'160' (0xA0),'0' (0x00),Read,ACK
1.209991000000000,55,'160' (0xA0),'0' (0x00),Read,ACK
1.210015500000000,55,'160' (0xA0),'0' (0x00),Read,ACK
1.210039500000000,55,'160' (0xA0),'0' (0x00),Read,ACK
1.210064000000000,55,'160' (0xA0),'0' (0x00),Read,ACK
1.210088000000000,55,'160' (0xA0),'0' (0x00),Read,ACK
1.210112500000000,55,'160' (0xA0),'0' (0x00),Read,ACK
1.210136500000000,55,'160' (0xA0),'0' (0x00),Read,ACK
1.210161000000000,55,'160' (0xA0),'0' (0x00),Read,ACK
1.210185000000000,55,'160' (0xA0),'0' (0x00),Read,ACK
1.210209500000000,55,'160' (0xA0),'0' (0x00),Read,ACK
1.210233500000000,55,'160' (0xA0),'0' (0x00),Read,ACK
1.210258000000000,55,'160' (0xA0),'0' (0x00),Read,ACK
1.210282000000000,55,'160' (0xA0),'0' (0x00),Read,ACK
1.210306500000000,55,'160' (0xA0),'0' (0x00),Read,ACK
1.210330500000000,55,'160' (0xA0),'0' (0x00),Read,ACK
1.210355000000000,55,'160' (0xA0),'255' (0xFF),Read,ACK
1.210379000000000,55,'160' (0xA0),'254' (0xFE),Read,ACK
1.210403500000000,55,'160' (0xA0),'255' (0xFF),Read,ACK
1.210427500000000,55,'160' (0xA0),'254' (0xFE),Read,ACK
1.210451500000000,55,'160' (0xA0),'255' (0xFF),Read,ACK
1.210476000000000,55,'160' (0xA0),'254' (0xFE),Read,ACK
1.210500000000000,55,'160' (0xA0),'255' (0xFF),Read,ACK
1.210524500000000,55,'160' (0xA0),'253' (0xFD),Read,ACK
1.210548500000000,55,'160' (0xA0),'255' (0xFF),Read,ACK
1.210573000000000,55,'160' (0xA0),'253' (0xFD),Read,ACK
1.210597000000000,55,'160' (0xA0),'0' (0x00),Read,ACK
1.210621500000000,55,'160' (0xA0),'0' (0x00),Read,ACK
1.210645500000000,55,'160' (0xA0),'0' (0x00),Read,ACK
1.210670000000000,55,'160' (0xA0),'0' (0x00),Read,ACK
1.210694000000000,55,'160' (0xA0),'0' (0x00),Read,ACK
1.210718500000000,55,'160' (0xA0),'0' (0x00),Read,ACK
1.210742500000000,55,'160' (0xA0),'0' (0x00),Read,ACK
1.210767000000000,55,'160' (0xA0),'0' (0x00),Read,ACK
1.210791000000000,55,'160' (0xA0),'0' (0x00),Read,ACK
1.210815500000000,55,'160' (0xA0),'0' (0x00),Read,ACK
1.210839500000000,55,'160' (0xA0),'0' (0x00),Read,ACK
1.210864000000000,55,'160' (0xA0),'0' (0x00),Read,ACK
1.210888000000000,55,'160' (0xA0),'0' (0x00),Read,ACK
1.210912000000000,55,'160' (0xA0),'0' (0x00),Read,ACK
1.210936500000000,55,'160' (0xA0),'0' (0x00),Read,ACK
1.210960500000000,55,'160' (0xA0),'0' (0x00),Read,ACK
1.210985000000000,55,'160' (0xA0),'0' (0x00),Read,ACK
1.211009000000000,55,'160' (0xA0),'0' (0x00),Read,ACK
1.211033500000000,55,'160' (0xA0),'0' (0x00),Read,ACK
1.211057500000000,55,'160' (0xA0),'0' (0x00),Read,ACK
1.211082000000000,55,'160' (0xA0),'0' (0x00),Read,ACK
1.211106000000000,55,'160' (0xA0),'0' (0x00),Read,ACK
1.211130500000000,55,'160' (0xA0),'0' (0x00),Read,ACK
1.211154500000000,55,'160' (0xA0),'0' (0x00),Read,ACK
1.211179000000000,55,'160' (0xA0),'0' (0x00),Read,ACK
1.211203000000000,55,'160' (0xA0),'2' (0x02),Read,ACK
1.211227500000000,55,'160' (0xA0),'0' (0x00),Read,ACK
1.211251500000000,55,'160' (0xA0),'2' (0x02),Read,ACK
1.211276000000000,55,'160' (0xA0),'0' (0x00),Read,ACK
1.211300000000000,55,'160' (0xA0),'2' (0x02),Read,ACK
1.211324500000000,55,'160' (0xA0),'0' (0x00),Read,ACK
1.211348500000000,55,'160' (0xA0),'0' (0x00),Read,ACK
1.211373000000000,55,'160' (0xA0),'0' (0x00),Read,ACK
1.211397000000000,55,'160' (0xA0),'0' (0x00),Read,ACK
1.211421000000000,55,'160' (0xA0),'0' (0x00),Read,ACK
1.211445500000000,55,'160' (0xA0),'0' (0x00),Read,ACK
1.211469500000000,55,'160' (0xA0),'0' (0x00),Read,ACK
1.211494000000000,55,'160' (0xA0),'0' (0x00),Read,ACK
1.211518000000000,55,'160' (0xA0),'0' (0x00),Read,ACK
1.211542500000000,55,'160' (0xA0),'0' (0x00),Read,ACK
1.211566500000000,55,'160' (0xA0),'0' (0x00),Read,ACK
1.211591000000000,55,'160' (0xA0),'0' (0x00),Read,ACK
1.211615000000000,55,'160' (0xA0),'0' (0x00),Read,ACK
1.211639500000000,55,'160' (0xA0),'0' (0x00),Read,ACK
1.211663500000000,55,'160' (0xA0),'0' (0x00),Read,ACK
1.211688000000000,55,'160' (0xA0),'254' (0xFE),Read,ACK
1.211712000000000,55,'160' (0xA0),'0' (0x00),Read,ACK
1.211736500000000,55,'160' (0xA0),'0' (0x00),Read,ACK
1.211760500000000,55,'160' (0xA0),'0' (0x00),Read,ACK
1.211785000000000,55,'160' (0xA0),'0' (0x00),Read,ACK
1.211809000000000,55,'160' (0xA0),'0' (0x00),Read,ACK
1.211833500000000,55,'160' (0xA0),'0' (0x00),Read,ACK
1.211857500000000,55,'160' (0xA0),'0' (0x00),Read,ACK
1.211881500000000,55,'160' (0xA0),'0' (0x00),Read,ACK
1.211906000000000,55,'160' (0xA0),'0' (0x00),Read,ACK
1.211930000000000,55,'160' (0xA0),'0' (0x00),Read,ACK
1.211954500000000,55,'160' (0xA0),'0' (0x00),Read,ACK
1.211978500000000,55,'160' (0xA0),'0' (0x00),Read,ACK
1.212003000000000,55,'160' (0xA0),'0' (0x00),Read,ACK
1.212027000000000,55,'160' (0xA0),'0' (0x00),Read,ACK
1.212051500000000,55,'160' (0xA0),'0' (0x00),Read,ACK
1.212075500000000,55,'160' (0xA0),'2' (0x02),Read,ACK
1.212100000000000,55,'160' (0xA0),'0' (0x00),Read,ACK
1.212124000000000,55,'160' (0xA0),'0' (0x00),Read,ACK
1.212148500000000,55,'160' (0xA0),'0' (0x00),Read,ACK
1.212172500000000,55,'160' (0xA0),'0' (0x00),Read,ACK
1.212197000000000,55,'160' (0xA0),'0' (0x00),Read,ACK
1.212221000000000,55,'160' (0xA0),'0' (0x00),Read,ACK
1.212245500000000,55,'160' (0xA0),'0' (0x00),Read,ACK
1.212269500000000,55,'160' (0xA0),'0' (0x00),Read,ACK
1.212294000000000,55,'160' (0xA0),'0' (0x00),Read,ACK
1.212318000000000,55,'160' (0xA0),'0' (0x00),Read,ACK
1.212342500000000,55,'160' (0xA0),'0' (0x00),Read,ACK
1.212366500000000,55,'160' (0xA0),'0' (0x00),Read,ACK
1.212390500000000,55,'160' (0xA0),'0' (0x00),Read,ACK
1.212415000000000,55,'160' (0xA0),'0' (0x00),Read,ACK
1.212439000000000,55,'160' (0xA0),'0' (0x00),Read,ACK
1.212463500000000,55,'160' (0xA0),'0' (0x00),Read,ACK
1.212487500000000,55,'160' (0xA0),'0' (0x00),Read,ACK
1.212512000000000,55,'160' (0xA0),'0' (0x00),Read,ACK
1.212536000000000,55,'160' (0xA0),'0' (0x00),Read,ACK
1.212560500000000,55,'160' (0xA0),'0' (0x00),Read,ACK
1.212584500000000,55,'160' (0xA0),'0' (0x00),Read,ACK
1.212609000000000,55,'160' (0xA0),'0' (0x00),Read,ACK
1.212633000000000,55,'160' (0xA0),'0' (0x00),Read,ACK
1.212657500000000,55,'160' (0xA0),'0' (0x00),Read,ACK
1.212681500000000,55,'160' (0xA0),'0' (0x00),Read,ACK
1.212706000000000,55,'160' (0xA0),'0' (0x00),Read,ACK
1.212730000000000,55,'160' (0xA0),'0' (0x00),Read,ACK
1.212754500000000,55,'160' (0xA0),'0' (0x00),Read,ACK
1.212778500000000,55,'160' (0xA0),'0' (0x00),Read,ACK
1.212803000000000,55,'160' (0xA0),'0' (0x00),Read,ACK
1.212827000000000,55,'160' (0xA0),'0' (0x00),Read,ACK
1.212851000000000,55,'160' (0xA0),'0' (0x00),Read,ACK
1.212875500000000,55,'160' (0xA0),'0' (0x00),Read,ACK
1.212899500000000,55,'160' (0xA0),'0' (0x00),Read,ACK
1.212924000000000,55,'160' (0xA0),'0' (0x00),Read,ACK
1.212948000000000,55,'160' (0xA0),'0' (0x00),Read,ACK
1.212972500000000,55,'160' (0xA0),'0' (0x00),Read,ACK
1.212996500000000,55,'160' (0xA0),'0' (0x00),Read,ACK
1.213021000000000,55,'160' (0xA0),'0' (0x00),Read,ACK
1.213045000000000,55,'160' (0xA0),'0' (0x00),Read,ACK
1.213069500000000,55,'160' (0xA0),'0' (0x00),Read,ACK
1.213093500000000,55,'160' (0xA0),'0' (0x00),Read,ACK
1.213118000000000,55,'160' (0xA0),'0' (0x00),Read,ACK
1.213142000000000,55,'160' (0xA0),'0' (0x00),Read,ACK
1.213166500000000,55,'160' (0xA0),'0' (0x00),Read,ACK
1.213190500000000,55,'160' (0xA0),'0' (0x00),Read,ACK
1.213215000000000,55,'160' (0xA0),'0' (0x00),Read,ACK
1.213239000000000,55,'160' (0xA0),'0' (0x00),Read,ACK
1.213263500000000,55,'160' (0xA0),'0' (0x00),Read,ACK
1.213287500000000,55,'160' (0xA0),'0' (0x00),Read,ACK
1.213312000000000,55,'160' (0xA0),'0' (0x00),Read,ACK
1.213336000000000,55,'160' (0xA0),'0' (0x00),Read,ACK
1.213360000000000,55,'160' (0xA0),'0' (0x00),Read,ACK
1.213384500000000,55,'160' (0xA0),'0' (0x00),Read,ACK
1.213408500000000,55,'160' (0xA0),'0' (0x00),Read,ACK
1.213433000000000,55,'160' (0xA0),'0' (0x00),Read,ACK
1.213457000000000,55,'160' (0xA0),'0' (0x00),Read,ACK
1.213481500000000,55,'160' (0xA0),'0' (0x00),Read,ACK
1.213505500000000,55,'160' (0xA0),'0' (0x00),Read,ACK
1.213530000000000,55,'160' (0xA0),'0' (0x00),Read,ACK
1.213554000000000,55,'160' (0xA0),'0' (0x00),Read,ACK
1.213578500000000,55,'160' (0xA0),'0' (0x00),Read,ACK
1.213602500000000,55,'160' (0xA0),'0' (0x00),Read,ACK
1.213627000000000,55,'160' (0xA0),'0' (0x00),Read,ACK
1.213651000000000,55,'160' (0xA0),'0' (0x00),Read,ACK
1.213675500000000,55,'160' (0xA0),'0' (0x00),Read,ACK
1.213699500000000,55,'160' (0xA0),'0' (0x00),Read,ACK
1.213724000000000,55,'160' (0xA0),'0' (0x00),Read,ACK
1.213748000000000,55,'160' (0xA0),'0' (0x00),Read,ACK
1.213772500000000,55,'160' (0xA0),'0' (0x00),Read,ACK
1.213796500000000,55,'160' (0xA0),'0' (0x00),Read,ACK
1.213820500000000,55,'160' (0xA0),'0' (0x00),Read,ACK
1.213845000000000,55,'160' (0xA0),'0' (0x00),Read,ACK
1.213869000000000,55,'160' (0xA0),'0' (0x00),Read,ACK
1.213893500000000,55,'160' (0xA0),'0' (0x00),Read,ACK
1.213917500000000,55,'160' (0xA0),'0' (0x00),Read,ACK
1.213942000000000,55,'160' (0xA0),'0' (0x00),Read,ACK
1.213966000000000,55,'160' (0xA0),'0' (0x00),Read,ACK
1.213990500000000,55,'160' (0xA0),'0' (0x00),Read,ACK
1.214014500000000,55,'160' (0xA0),'0' (0x00),Read,ACK
1.214039000000000,55,'160' (0xA0),'0' (0x00),Read,ACK
1.214063000000000,55,'160' (0xA0),'0' (0x00),Read,ACK
1.214087500000000,55,'160' (0xA0),'0' (0x00),Read,ACK
1.214111500000000,55,'160' (0xA0),'0' (0x00),Read,ACK
1.214136000000000,55,'160' (0xA0),'0' (0x00),Read,ACK
1.214160000000000,55,'160' (0xA0),'0' (0x00),Read,ACK
1.214184500000000,55,'160' (0xA0),'0' (0x00),Read,ACK
1.214208500000000,55,'160' (0xA0),'0' (0x00),Read,ACK
1.214233000000000,55,'160' (0xA0),'0' (0x00),Read,ACK
1.214257000000000,55,'160' (0xA0),'0' (0x00),Read,ACK
1.214281500000000,55,'160' (0xA0),'0' (0x00),Read,ACK
1.214305500000000,55,'160' (0xA0),'0' (0x00),Read,NAK
1.216734000000000,56,'160' (0xA0),'3' (0x03),Write,ACK
1.216758500000000,56,'160' (0xA0),'128' (0x80),Write,ACK
1.227523500000000,57,'160' (0xA0),'203' (0xCB),Read,ACK
1.227548000000000,57,'160' (0xA0),'1' (0x01),Read,ACK
1.227572000000000,57,'160' (0xA0),1 (0x31),Read,ACK
1.227597000000000,57,'160' (0xA0),2 (0x32),Read,ACK
1.227621500000000,57,'160' (0xA0),3 (0x33),Read,ACK
1.227645500000000,57,'160' (0xA0),4 (0x34),Read,NAK
1.228574000000000,58,'160' (0xA0),'3' (0x03),Write,ACK
1.228598500000000,58,'160' (0xA0),'128' (0x80),Write,ACK
1.239363500000000,59,'160' (0xA0),'203' (0xCB),Read,ACK
1.239388000000000,59,'160' (0xA0),'1' (0x01),Read,ACK
1.239412000000000,59,'160' (0xA0),1 (0x31),Read,ACK
1.239437000000000,59,'160' (0xA0),2 (0x32),Read,ACK
1.239461500000000,59,'160' (0xA0),3 (0x33),Read,ACK
1.239485500000000,59,'160' (0xA0),4 (0x34),Read,ACK
1.239510000000000,59,'160' (0xA0),'0' (0x00),Read,ACK
1.239534500000000,59,'160' (0xA0),'0' (0x00),Read,ACK
1.239558500000000,59,'160' (0xA0),'0' (0x00),Read,ACK
1.239583000000000,59,'160' (0xA0),'0' (0x00),Read,ACK
1.239607000000000,59,'160' (0xA0),'0' (0x00),Read,ACK
1.239631500000000,59,'160' (0xA0),'0' (0x00),Read,ACK
1.239657500000000,59,'160' (0xA0),'0' (0x00),Read,ACK
1.239681500000000,59,'160' (0xA0),'0' (0x00),Read,ACK
1.239706000000000,59,'160' (0xA0),'0' (0x00),Read,ACK
1.239730000000000,59,'160' (0xA0),'0' (0x00),Read,ACK
1.239754500000000,59,'160' (0xA0),'0' (0x00),Read,ACK
1.239778500000000,59,'160' (0xA0),'0' (0x00),Read,ACK
1.239803000000000,59,'160' (0xA0),'0' (0x00),Read,ACK
1.239827000000000,59,'160' (0xA0),'0' (0x00),Read,ACK
1.239851500000000,59,'160' (0xA0),'0' (0x00),Read,ACK
1.239875500000000,59,'160' (0xA0),'0' (0x00),Read,ACK
1.239900000000000,59,'160' (0xA0),'0' (0x00),Read,ACK
1.239924000000000,59,'160' (0xA0),'0' (0x00),Read,ACK
1.239948500000000,59,'160' (0xA0),'0' (0x00),Read,ACK
1.239972500000000,59,'160' (0xA0),'0' (0x00),Read,ACK
1.239997000000000,59,'160' (0xA0),'0' (0x00),Read,ACK
1.240021000000000,59,'160' (0xA0),'0' (0x00),Read,ACK
1.240045000000000,59,'160' (0xA0),'0' (0x00),Read,ACK
1.240069500000000,59,'160' (0xA0),'0' (0x00),Read,ACK
1.240093500000000,59,'160' (0xA0),'0' (0x00),Read,ACK
1.240118000000000,59,'160' (0xA0),'0' (0x00),Read,ACK
1.240142000000000,59,'160' (0xA0),'0' (0x00),Read,ACK
1.240166500000000,59,'160' (0xA0),'0' (0x00),Read,ACK
1.240190500000000,59,'160' (0xA0),'0' (0x00),Read,ACK
1.240215000000000,59,'160' (0xA0),'0' (0x00),Read,ACK
1.240239000000000,59,'160' (0xA0),'0' (0x00),Read,ACK
1.240263500000000,59,'160' (0xA0),'0' (0x00),Read,ACK
1.240287500000000,59,'160' (0xA0),'0' (0x00),Read,ACK
1.240312000000000,59,'160' (0xA0),'0' (0x00),Read,ACK
1.240336000000000,59,'160' (0xA0),'0' (0x00),Read,ACK
1.240360500000000,59,'160' (0xA0),'0' (0x00),Read,ACK
1.240384500000000,59,'160' (0xA0),'0' (0x00),Read,ACK
1.240409000000000,59,'160' (0xA0),'0' (0x00),Read,ACK
1.240433000000000,59,'160' (0xA0),'0' (0x00),Read,ACK
1.240457500000000,59,'160' (0xA0),'0' (0x00),Read,ACK
1.240481500000000,59,'160' (0xA0),'0' (0x00),Read,ACK
1.240506000000000,59,'160' (0xA0),'0' (0x00),Read,ACK
1.240530000000000,59,'160' (0xA0),'0' (0x00),Read,ACK
1.240554000000000,59,'160' (0xA0),'0' (0x00),Read,ACK
1.240578500000000,59,'160' (0xA0),'0' (0x00),Read,ACK
1.240602500000000,59,'160' (0xA0),'0' (0x00),Read,ACK
1.240627000000000,59,'160' (0xA0),'0' (0x00),Read,ACK
1.240651000000000,59,'160' (0xA0),'0' (0x00),Read,ACK
1.240675500000000,59,'160' (0xA0),'0' (0x00),Read,ACK
1.240699500000000,59,'160' (0xA0),'0' (0x00),Read,ACK
1.240724000000000,59,'160' (0xA0),'0' (0x00),Read,ACK
1.240748000000000,59,'160' (0xA0),'0' (0x00),Read,ACK
1.240772500000000,59,'160' (0xA0),'0' (0x00),Read,ACK
1.240796500000000,59,'160' (0xA0),'0' (0x00),Read,ACK
1.240821000000000,59,'160' (0xA0),'0' (0x00),Read,ACK
1.240845000000000,59,'160' (0xA0),'0' (0x00),Read,ACK
1.240869500000000,59,'160' (0xA0),'0' (0x00),Read,ACK
1.240893500000000,59,'160' (0xA0),'0' (0x00),Read,ACK
1.240918000000000,59,'160' (0xA0),'0' (0x00),Read,ACK
1.240942000000000,59,'160' (0xA0),'0' (0x00),Read,ACK
1.240966500000000,59,'160' (0xA0),'0' (0x00),Read,ACK
1.240990500000000,59,'160' (0xA0),'0' (0x00),Read,ACK
1.241014500000000,59,'160' (0xA0),'0' (0x00),Read,ACK
1.241039000000000,59,'160' (0xA0),'0' (0x00),Read,ACK
1.241063000000000,59,'160' (0xA0),'0' (0x00),Read,ACK
1.241087500000000,59,'160' (0xA0),'0' (0x00),Read,ACK
1.241111500000000,59,'160' (0xA0),'0' (0x00),Read,ACK
1.241136000000000,59,'160' (0xA0),'0' (0x00),Read,ACK
1.241160000000000,59,'160' (0xA0),'0' (0x00),Read,ACK
1.241184500000000,59,'160' (0xA0),'0' (0x00),Read,ACK
1.241208500000000,59,'160' (0xA0),'0' (0x00),Read,ACK
1.241233000000000,59,'160' (0xA0),'0' (0x00),Read,ACK
1.241257000000000,59,'160' (0xA0),'0' (0x00),Read,ACK
1.241281500000000,59,'160' (0xA0),'0' (0x00),Read,ACK
1.241305500000000,59,'160' (0xA0),'0' (0x00),Read,ACK
1.241330000000000,59,'160' (0xA0),'0' (0x00),Read,ACK
1.241354000000000,59,'160' (0xA0),'0' (0x00),Read,ACK
1.241378500000000,59,'160' (0xA0),'0' (0x00),Read,ACK
1.241402500000000,59,'160' (0xA0),'0' (0x00),Read,ACK
1.241427000000000,59,'160' (0xA0),'0' (0x00),Read,ACK
1.241451000000000,59,'160' (0xA0),'0' (0x00),Read,ACK
1.241475500000000,59,'160' (0xA0),'0' (0x00),Read,ACK
1.241499500000000,59,'160' (0xA0),'0' (0x00),Read,ACK
1.241523500000000,59,'160' (0xA0),'0' (0x00),Read,ACK
1.241548000000000,59,'160' (0xA0),'0' (0x00),Read,ACK
1.241572000000000,59,'160' (0xA0),'0' (0x00),Read,ACK
1.241596500000000,59,'160' (0xA0),'0' (0x00),Read,ACK
1.241620500000000,59,'160' (0xA0),'0' (0x00),Read,ACK
1.241645000000000,59,'160' (0xA0),'0' (0x00),Read,ACK
1.241669000000000,59,'160' (0xA0),'0' (0x00),Read,ACK
1.241693500000000,59,'160' (0xA0),'0' (0x00),Read,ACK
1.241717500000000,59,'160' (0xA0),'0' (0x00),Read,ACK
1.241742000000000,59,'160' (0xA0),'0' (0x00),Read,ACK
1.241766000000000,59,'160' (0xA0),'0' (0x00),Read,ACK
1.241790500000000,59,'160' (0xA0),'0' (0x00),Read,ACK
1.241814500000000,59,'160' (0xA0),'0' (0x00),Read,ACK
1.241839000000000,59,'160' (0xA0),'0' (0x00),Read,ACK
1.241863000000000,59,'160' (0xA0),'0' (0x00),Read,ACK
1.241887500000000,59,'160' (0xA0),'0' (0x00),Read,ACK
1.241911500000000,59,'160' (0xA0),'0' (0x00),Read,ACK
1.241936000000000,59,'160' (0xA0),'0' (0x00),Read,ACK
1.241960000000000,59,'160' (0xA0),'0' (0x00),Read,ACK
1.241984000000000,59,'160' (0xA0),'0' (0x00),Read,ACK
1.242008500000000,59,'160' (0xA0),'0' (0x00),Read,ACK
1.242032500000000,59,'160' (0xA0),'0' (0x00),Read,ACK
1.242057000000000,59,'160' (0xA0),'0' (0x00),Read,ACK
1.242081000000000,59,'160' (0xA0),'0' (0x00),Read,ACK
1.242105500000000,59,'160' (0xA0),'0' (0x00),Read,ACK
1.242129500000000,59,'160' (0xA0),'0' (0x00),Read,ACK
1.242154000000000,59,'160' (0xA0),'0' (0x00),Read,ACK
1.242178000000000,59,'160' (0xA0),'0' (0x00),Read,ACK
1.242202500000000,59,'160' (0xA0),'0' (0x00),Read,ACK
1.242226500000000,59,'160' (0xA0),'0' (0x00),Read,ACK
1.242251000000000,59,'160' (0xA0),'0' (0x00),Read,ACK
1.242275000000000,59,'160' (0xA0),'0' (0x00),Read,ACK
1.242299500000000,59,'160' (0xA0),'0' (0x00),Read,ACK
1.242323500000000,59,'160' (0xA0),'0' (0x00),Read,ACK
1.242348000000000,59,'160' (0xA0),'0' (0x00),Read,ACK
1.242372000000000,59,'160' (0xA0),'0' (0x00),Read,ACK
1.242396500000000,59,'160' (0xA0),'0' (0x00),Read,ACK
1.242420500000000,59,'160' (0xA0),'0' (0x00),Read,ACK
1.242445000000000,59,'160' (0xA0),'0' (0x00),Read,ACK
1.242469000000000,59,'160' (0xA0),'0' (0x00),Read,ACK
1.242493000000000,59,'160' (0xA0),'0' (0x00),Read,ACK
1.242517500000000,59,'160' (0xA0),'0' (0x00),Read,ACK
1.242541500000000,59,'160' (0xA0),'0' (0x00),Read,ACK
1.242566000000000,59,'160' (0xA0),'0' (0x00),Read,ACK
1.242590000000000,59,'160' (0xA0),'0' (0x00),Read,ACK
1.242614500000000,59,'160' (0xA0),'0' (0x00),Read,ACK
1.242638500000000,59,'160' (0xA0),'0' (0x00),Read,ACK
1.242663000000000,59,'160' (0xA0),'0' (0x00),Read,ACK
1.242687000000000,59,'160' (0xA0),'0' (0x00),Read,ACK
1.242711500000000,59,'160' (0xA0),'0' (0x00),Read,ACK
1.242735500000000,59,'160' (0xA0),'0' (0x00),Read,ACK
1.242760000000000,59,'160' (0xA0),'0' (0x00),Read,ACK
1.242784000000000,59,'160' (0xA0),'0' (0x00),Read,ACK
1.242808500000000,59,'160' (0xA0),'0' (0x00),Read,ACK
1.242832500000000,59,'160' (0xA0),'0' (0x00),Read,ACK
1.242857000000000,59,'160' (0xA0),'0' (0x00),Read,ACK
1.242881000000000,59,'160' (0xA0),'0' (0x00),Read,ACK
1.242905500000000,59,'160' (0xA0),'0' (0x00),Read,ACK
1.242929500000000,59,'160' (0xA0),'0' (0x00),Read,ACK
1.242953500000000,59,'160' (0xA0),'0' (0x00),Read,ACK
1.242978000000000,59,'160' (0xA0),'0' (0x00),Read,ACK
1.243002000000000,59,'160' (0xA0),'0' (0x00),Read,ACK
1.243026500000000,59,'160' (0xA0),'0' (0x00),Read,ACK
1.243050500000000,59,'160' (0xA0),'0' (0x00),Read,ACK
1.243075000000000,59,'160' (0xA0),'0' (0x00),Read,ACK
1.243099000000000,59,'160' (0xA0),'0' (0x00),Read,ACK
1.243123500000000,59,'160' (0xA0),'0' (0x00),Read,ACK
1.243147500000000,59,'160' (0xA0),'0' (0x00),Read,ACK
1.243172000000000,59,'160' (0xA0),'0' (0x00),Read,ACK
1.243196000000000,59,'160' (0xA0),'0' (0x00),Read,ACK
1.243220500000000,59,'160' (0xA0),'0' (0x00),Read,ACK
1.243244500000000,59,'160' (0xA0),'0' (0x00),Read,ACK
1.243269000000000,59,'160' (0xA0),'0' (0x00),Read,ACK
1.243293000000000,59,'160' (0xA0),'0' (0x00),Read,ACK
1.243317500000000,59,'160' (0xA0),'0' (0x00),Read,ACK
1.243341500000000,59,'160' (0xA0),'0' (0x00),Read,ACK
1.243366000000000,59,'160' (0xA0),'0' (0x00),Read,ACK
1.243390000000000,59,'160' (0xA0),'0' (0x00),Read,ACK
1.243414500000000,59,'160' (0xA0),'0' (0x00),Read,ACK
1.243438500000000,59,'160' (0xA0),'0' (0x00),Read,ACK
1.243462500000000,59,'160' (0xA0),'0' (0x00),Read,ACK
1.243487000000000,59,'160' (0xA0),'0' (0x00),Read,ACK
1.243511000000000,59,'160' (0xA0),'0' (0x00),Read,ACK
1.243535500000000,59,'160' (0xA0),'0' (0x00),Read,ACK
1.243559500000000,59,'160' (0xA0),'0' (0x00),Read,ACK
1.243584000000000,59,'160' (0xA0),'0' (0x00),Read,ACK
1.243608000000000,59,'160' (0xA0),'0' (0x00),Read,ACK
1.243632500000000,59,'160' (0xA0),'0' (0x00),Read,ACK
1.243656500000000,59,'160' (0xA0),'0' (0x00),Read,ACK
1.243681000000000,59,'160' (0xA0),'0' (0x00),Read,ACK
1.243705000000000,59,'160' (0xA0),'0' (0x00),Read,ACK
1.243729500000000,59,'160' (0xA0),'0' (0x00),Read,ACK
1.243753500000000,59,'160' (0xA0),'0' (0x00),Read,ACK
1.243778000000000,59,'160' (0xA0),'0' (0x00),Read,ACK
1.243802000000000,59,'160' (0xA0),'0' (0x00),Read,ACK
1.243826500000000,59,'160' (0xA0),'0' (0x00),Read,ACK
1.243850500000000,59,'160' (0xA0),'0' (0x00),Read,ACK
1.243875000000000,59,'160' (0xA0),'0' (0x00),Read,ACK
1.243899000000000,59,'160' (0xA0),'0' (0x00),Read,ACK
1.243923500000000,59,'160' (0xA0),'0' (0x00),Read,ACK
1.243947500000000,59,'160' (0xA0),'0' (0x00),Read,ACK
1.243971500000000,59,'160' (0xA0),'0' (0x00),Read,ACK
1.243996000000000,59,'160' (0xA0),'0' (0x00),Read,ACK
1.244020000000000,59,'160' (0xA0),'0' (0x00),Read,ACK
1.244044500000000,59,'160' (0xA0),'0' (0x00),Read,ACK
1.244068500000000,59,'160' (0xA0),'0' (0x00),Read,ACK
1.244093000000000,59,'160' (0xA0),'0' (0x00),Read,ACK
1.244117000000000,59,'160' (0xA0),'0' (0x00),Read,ACK
1.244141500000000,59,'160' (0xA0),'0' (0x00),Read,ACK
1.244165500000000,59,'160' (0xA0),'0' (0x00),Read,ACK
1.244190000000000,59,'160' (0xA0),'0' (0x00),Read,ACK
1.244214000000000,59,'160' (0xA0),'0' (0x00),Read,ACK
1.244238500000000,59,'160' (0xA0),'0' (0x00),Read,ACK
1.244262500000000,59,'160' (0xA0),'0' (0x00),Read,ACK
1.244287000000000,59,'160' (0xA0),'0' (0x00),Read,ACK
1.244311000000000,59,'160' (0xA0),'0' (0x00),Read,ACK
1.244335500000000,59,'160' (0xA0),'0' (0x00),Read,ACK
1.244359500000000,59,'160' (0xA0),'0' (0x00),Read,ACK
1.244384000000000,59,'160' (0xA0),'0' (0x00),Read,ACK
1.244408000000000,59,'160' (0xA0),'0' (0x00),Read,ACK
1.244432000000000,59,'160' (0xA0),'0' (0x00),Read,ACK
1.244456500000000,59,'160' (0xA0),'0' (0x00),Read,ACK
1.244480500000000,59,'160' (0xA0),'0' (0x00),Read,ACK
1.244505000000000,59,'160' (0xA0),'0' (0x00),Read,ACK
1.244529000000000,59,'160' (0xA0),'0' (0x00),Read,ACK
1.244553500000000,59,'160' (0xA0),'0' (0x00),Read,ACK
1.244577500000000,59,'160' (0xA0),'0' (0x00),Read,ACK
1.244602000000000,59,'160' (0xA0),'0' (0x00),Read,ACK
1.244626000000000,59,'160' (0xA0),'0' (0x00),Read,ACK
1.244650500000000,59,'160' (0xA0),'0' (0x00),Read,ACK
1.244674500000000,59,'160' (0xA0),'0' (0x00),Read,ACK
1.244699000000000,59,'160' (0xA0),'0' (0x00),Read,ACK
1.244723000000000,59,'160' (0xA0),'0' (0x00),Read,ACK
1.244747500000000,59,'160' (0xA0),'0' (0x00),Read,ACK
1.244771500000000,59,'160' (0xA0),'0' (0x00),Read,ACK
1.244796000000000,59,'160' (0xA0),'0' (0x00),Read,ACK
1.244820000000000,59,'160' (0xA0),'0' (0x00),Read,ACK
1.244844500000000,59,'160' (0xA0),'0' (0x00),Read,ACK
1.244868500000000,59,'160' (0xA0),'0' (0x00),Read,ACK
1.244893000000000,59,'160' (0xA0),'0' (0x00),Read,ACK
1.244917000000000,59,'160' (0xA0),'0' (0x00),Read,ACK
1.244941000000000,59,'160' (0xA0),'0' (0x00),Read,ACK
1.244965500000000,59,'160' (0xA0),'0' (0x00),Read,ACK
1.244989500000000,59,'160' (0xA0),'0' (0x00),Read,ACK
1.245014000000000,59,'160' (0xA0),'0' (0x00),Read,ACK
1.245038000000000,59,'160' (0xA0),'0' (0x00),Read,ACK
1.245062500000000,59,'160' (0xA0),'0' (0x00),Read,ACK
1.245086500000000,59,'160' (0xA0),'0' (0x00),Read,ACK
1.245111000000000,59,'160' (0xA0),'0' (0x00),Read,ACK
1.245135000000000,59,'160' (0xA0),'0' (0x00),Read,ACK
1.245159500000000,59,'160' (0xA0),'0' (0x00),Read,ACK
1.245183500000000,59,'160' (0xA0),'0' (0x00),Read,ACK
1.245208000000000,59,'160' (0xA0),'0' (0x00),Read,ACK
1.245232000000000,59,'160' (0xA0),'0' (0x00),Read,ACK
1.245256500000000,59,'160' (0xA0),'0' (0x00),Read,ACK
1.245280500000000,59,'160' (0xA0),'0' (0x00),Read,ACK
1.245305000000000,59,'160' (0xA0),'0' (0x00),Read,ACK
1.245329000000000,59,'160' (0xA0),'0' (0x00),Read,ACK
1.245353500000000,59,'160' (0xA0),'0' (0x00),Read,ACK
1.245377500000000,59,'160' (0xA0),'0' (0x00),Read,ACK
1.245401500000000,59,'160' (0xA0),'0' (0x00),Read,ACK
1.245426000000000,59,'160' (0xA0),'0' (0x00),Read,ACK
1.245450000000000,59,'160' (0xA0),'0' (0x00),Read,ACK
1.245474500000000,59,'160' (0xA0),'0' (0x00),Read,ACK
1.245498500000000,59,'160' (0xA0),'0' (0x00),Read,ACK
1.245523000000000,59,'160' (0xA0),'0' (0x00),Read,ACK
1.245547000000000,59,'160' (0xA0),'0' (0x00),Read,ACK
1.245571500000000,59,'160' (0xA0),'0' (0x00),Read,ACK
1.245595500000000,59,'160' (0xA0),'0' (0x00),Read,ACK
1.245620000000000,59,'160' (0xA0),'0' (0x00),Read,ACK
1.245644000000000,59,'160' (0xA0),'0' (0x00),Read,ACK
1.245668500000000,59,'160' (0xA0),'0' (0x00),Read,ACK
1.245692500000000,59,'160' (0xA0),'0' (0x00),Read,ACK
1.245717000000000,59,'160' (0xA0),'0' (0x00),Read,ACK
1.245741000000000,59,'160' (0xA0),'0' (0x00),Read,ACK
1.245765500000000,59,'160' (0xA0),'0' (0x00),Read,ACK
1.245789500000000,59,'160' (0xA0),'0' (0x00),Read,ACK
1.245814000000000,59,'160' (0xA0),'0' (0x00),Read,ACK
1.245838000000000,59,'160' (0xA0),'0' (0x00),Read,ACK
1.245862500000000,59,'160' (0xA0),'0' (0x00),Read,ACK
1.245886500000000,59,'160' (0xA0),'0' (0x00),Read,ACK
1.245910500000000,59,'160' (0xA0),'0' (0x00),Read,ACK
1.245935000000000,59,'160' (0xA0),'0' (0x00),Read,ACK
1.245959000000000,59,'160' (0xA0),'0' (0x00),Read,ACK
1.245983500000000,59,'160' (0xA0),'0' (0x00),Read,ACK
1.246007500000000,59,'160' (0xA0),'0' (0x00),Read,ACK
1.246032000000000,59,'160' (0xA0),'0' (0x00),Read,ACK
1.246056000000000,59,'160' (0xA0),'0' (0x00),Read,ACK
1.246080500000000,59,'160' (0xA0),'0' (0x00),Read,ACK
1.246104500000000,59,'160' (0xA0),'0' (0x00),Read,ACK
1.246129000000000,59,'160' (0xA0),'0' (0x00),Read,ACK
1.246153000000000,59,'160' (0xA0),'0' (0x00),Read,ACK
1.246177500000000,59,'160' (0xA0),'0' (0x00),Read,ACK
1.246201500000000,59,'160' (0xA0),'0' (0x00),Read,ACK
1.246226000000000,59,'160' (0xA0),'0' (0x00),Read,ACK
1.246250000000000,59,'160' (0xA0),'0' (0x00),Read,ACK
1.246274500000000,59,'160' (0xA0),'0' (0x00),Read,ACK
1.246298500000000,59,'160' (0xA0),'0' (0x00),Read,ACK
1.246323000000000,59,'160' (0xA0),'0' (0x00),Read,ACK
1.246347000000000,59,'160' (0xA0),'0' (0x00),Read,ACK
1.246371000000000,59,'160' (0xA0),'0' (0x00),Read,ACK
1.246395500000000,59,'160' (0xA0),'0' (0x00),Read,ACK
1.246419500000000,59,'160' (0xA0),'0' (0x00),Read,ACK
1.246444000000000,59,'160' (0xA0),'0' (0x00),Read,ACK
1.246468000000000,59,'160' (0xA0),'0' (0x00),Read,ACK
1.246492500000000,59,'160' (0xA0),'0' (0x00),Read,ACK
1.246516500000000,59,'160' (0xA0),'0' (0x00),Read,ACK
1.246541000000000,59,'160' (0xA0),'0' (0x00),Read,ACK
1.246565000000000,59,'160' (0xA0),'0' (0x00),Read,ACK
1.246589500000000,59,'160' (0xA0),'0' (0x00),Read,ACK
1.246613500000000,59,'160' (0xA0),'0' (0x00),Read,ACK
1.246638000000000,59,'160' (0xA0),'0' (0x00),Read,ACK
1.246662000000000,59,'160' (0xA0),'0' (0x00),Read,ACK
1.246686500000000,59,'160' (0xA0),'0' (0x00),Read,ACK
1.246710500000000,59,'160' (0xA0),'0' (0x00),Read,ACK
1.246735000000000,59,'160' (0xA0),'0' (0x00),Read,ACK
1.246759000000000,59,'160' (0xA0),'0' (0x00),Read,ACK
1.246783500000000,59,'160' (0xA0),'0' (0x00),Read,ACK
1.246807500000000,59,'160' (0xA0),'0' (0x00),Read,ACK
1.246832000000000,59,'160' (0xA0),'0' (0x00),Read,ACK
1.246856000000000,59,'160' (0xA0),'0' (0x00),Read,ACK
1.246880000000000,59,'160' (0xA0),'0' (0x00),Read,ACK
1.246904500000000,59,'160' (0xA0),'0' (0x00),Read,ACK
1.246928500000000,59,'160' (0xA0),'0' (0x00),Read,ACK
1.246953000000000,59,'160' (0xA0),'0' (0x00),Read,ACK
1.246977000000000,59,'160' (0xA0),'0' (0x00),Read,ACK
1.247001500000000,59,'160' (0xA0),'0' (0x00),Read,ACK
1.247025500000000,59,'160' (0xA0),'0' (0x00),Read,ACK
1.247050000000000,59,'160' (0xA0),'0' (0x00),Read,ACK
1.247074000000000,59,'160' (0xA0),'0' (0x00),Read,ACK
1.247098500000000,59,'160' (0xA0),'0' (0x00),Read,NAK
1.248771000000000,60,'160' (0xA0),\n (0x0A),Write,ACK
1.248795500000000,60,'160' (0xA0),'208' (0xD0),Write,ACK
1.259554000000000,61,'160' (0xA0),'215' (0xD7),Read,ACK
1.259578500000000,61,'160' (0xA0),'3' (0x03),Read,ACK
1.259602500000000,61,'160' (0xA0),1 (0x31),Read,ACK
1.259627500000000,61,'160' (0xA0),2 (0x32),Read,ACK
1.259652000000000,61,'160' (0xA0),3 (0x33),Read,ACK
1.259676000000000,61,'160' (0xA0),4 (0x34),Read,NAK
1.260605000000000,62,'160' (0xA0),\n (0x0A),Write,ACK
1.260630000000000,62,'160' (0xA0),'208' (0xD0),Write,ACK
1.271391500000000,63,'160' (0xA0),'215' (0xD7),Read,ACK
1.271415500000000,63,'160' (0xA0),'3' (0x03),Read,ACK
1.271440000000000,63,'160' (0xA0),1 (0x31),Read,ACK
1.271465000000000,63,'160' (0xA0),2 (0x32),Read,ACK
1.271489500000000,63,'160' (0xA0),3 (0x33),Read,ACK
1.271513500000000,63,'160' (0xA0),4 (0x34),Read,ACK
1.271537500000000,63,'160' (0xA0),'0' (0x00),Read,ACK
1.271562500000000,63,'160' (0xA0),'0' (0x00),Read,ACK
1.271586500000000,63,'160' (0xA0),'0' (0x00),Read,ACK
1.271611000000000,63,'160' (0xA0),'0' (0x00),Read,ACK
1.271635000000000,63,'160' (0xA0),'0' (0x00),Read,ACK
1.271659000000000,63,'160' (0xA0),'0' (0x00),Read,ACK
1.271685000000000,63,'160' (0xA0),'0' (0x00),Read,ACK
1.271709500000000,63,'160' (0xA0),'0' (0x00),Read,ACK
1.271733500000000,63,'160' (0xA0),'0' (0x00),Read,ACK
1.271758000000000,63,'160' (0xA0),'0' (0x00),Read,ACK
1.271782000000000,63,'160' (0xA0),'255' (0xFF),Read,ACK
1.271806500000000,63,'160' (0xA0),'255' (0xFF),Read,ACK
1.271830500000000,63,'160' (0xA0),'255' (0xFF),Read,ACK
1.271855000000000,63,'160' (0xA0),'255' (0xFF),Read,ACK
1.271879000000000,63,'160' (0xA0),'255' (0xFF),Read,ACK
1.271903500000000,63,'160' (0xA0),'255' (0xFF),Read,ACK
1.271927500000000,63,'160' (0xA0),'255' (0xFF),Read,ACK
1.271952000000000,63,'160' (0xA0),'255' (0xFF),Read,ACK
1.271976000000000,63,'160' (0xA0),'255' (0xFF),Read,ACK
1.272000500000000,63,'160' (0xA0),'255' (0xFF),Read,ACK
1.272024500000000,63,'160' (0xA0),'255' (0xFF),Read,ACK
1.272049000000000,63,'160' (0xA0),'255' (0xFF),Read,ACK
1.272073000000000,63,'160' (0xA0),'255' (0xFF),Read,ACK
1.272097500000000,63,'160' (0xA0),' ' (0x20),Read,ACK
1.272121500000000,63,'160' (0xA0),' ' (0x20),Read,ACK
1.272146000000000,63,'160' (0xA0),' ' (0x20),Read,ACK
1.272170000000000,63,'160' (0xA0),' ' (0x20),Read,ACK
1.272194000000000,63,'160' (0xA0),' ' (0x20),Read,ACK
1.272218500000000,63,'160' (0xA0),' ' (0x20),Read,ACK
1.272242500000000,63,'160' (0xA0),' ' (0x20),Read,ACK
1.272267000000000,63,'160' (0xA0),' ' (0x20),Read,ACK
1.272291000000000,63,'160' (0xA0),' ' (0x20),Read,ACK
1.272315500000000,63,'160' (0xA0),' ' (0x20),Read,ACK
1.272339500000000,63,'160' (0xA0),' ' (0x20),Read,ACK
1.272364000000000,63,'160' (0xA0),' ' (0x20),Read,ACK
1.272388000000000,63,'160' (0xA0),'255' (0xFF),Read,ACK
1.272412500000000,63,'160' (0xA0),'255' (0xFF),Read,ACK
1.272436500000000,63,'160' (0xA0),'255' (0xFF),Read,ACK
1.272461000000000,63,'160' (0xA0),'255' (0xFF),Read,ACK
1.272485000000000,63,'160' (0xA0),'255' (0xFF),Read,ACK
1.272509500000000,63,'160' (0xA0),'255' (0xFF),Read,ACK
1.272533500000000,63,'160' (0xA0),'255' (0xFF),Read,ACK
1.272558000000000,63,'160' (0xA0),'255' (0xFF),Read,ACK
1.272582000000000,63,'160' (0xA0),'255' (0xFF),Read,ACK
1.272606500000000,63,'160' (0xA0),'255' (0xFF),Read,ACK
1.272630500000000,63,'160' (0xA0),'255' (0xFF),Read,ACK
1.272655000000000,63,'160' (0xA0),'255' (0xFF),Read,ACK
1.272679000000000,63,'160' (0xA0),'255' (0xFF),Read,ACK
1.272703000000000,63,'160' (0xA0),' ' (0x20),Read,ACK
1.272727500000000,63,'160' (0xA0),' ' (0x20),Read,ACK
1.272751500000000,63,'160' (0xA0),' ' (0x20),Read,ACK
1.272776000000000,63,'160' (0xA0),' ' (0x20),Read,ACK
1.272800000000000,63,'160' (0xA0),' ' (0x20),Read,ACK
1.272824500000000,63,'160' (0xA0),' ' (0x20),Read,ACK
1.272848500000000,63,'160' (0xA0),' ' (0x20),Read,ACK
1.272873000000000,63,'160' (0xA0),' ' (0x20),Read,ACK
1.272897000000000,63,'160' (0xA0),' ' (0x20),Read,ACK
1.272921500000000,63,'160' (0xA0),' ' (0x20),Read,ACK
1.272945500000000,63,'160' (0xA0),' ' (0x20),Read,ACK
1.272970000000000,63,'160' (0xA0),' ' (0x20),Read,ACK
1.272994000000000,63,'160' (0xA0),'255' (0xFF),Read,ACK
1.273018500000000,63,'160' (0xA0),'255' (0xFF),Read,ACK
1.273042500000000,63,'160' (0xA0),'255' (0xFF),Read,ACK
1.273067000000000,63,'160' (0xA0),'255' (0xFF),Read,ACK
1.273091000000000,63,'160' (0xA0),'255' (0xFF),Read,ACK
1.273115500000000,63,'160' (0xA0),'255' (0xFF),Read,ACK
1.273139500000000,63,'160' (0xA0),'255' (0xFF),Read,ACK
1.273163500000000,63,'160' (0xA0),'255' (0xFF),Read,ACK
1.273188000000000,63,'160' (0xA0),'255' (0xFF),Read,ACK
1.273212000000000,63,'160' (0xA0),'255' (0xFF),Read,ACK
1.273236500000000,63,'160' (0xA0),'255' (0xFF),Read,ACK
1.273260500000000,63,'160' (0xA0),'255' (0xFF),Read,ACK
1.273285000000000,63,'160' (0xA0),'255' (0xFF),Read,ACK
1.273309000000000,63,'160' (0xA0),' ' (0x20),Read,ACK
1.273333500000000,63,'160' (0xA0),' ' (0x20),Read,ACK
1.273357500000000,63,'160' (0xA0),' ' (0x20),Read,ACK
1.273382000000000,63,'160' (0xA0),' ' (0x20),Read,ACK
1.273406000000000,63,'160' (0xA0),' ' (0x20),Read,ACK
1.273430500000000,63,'160' (0xA0),' ' (0x20),Read,ACK
1.273454500000000,63,'160' (0xA0),' ' (0x20),Read,ACK
1.273479000000000,63,'160' (0xA0),' ' (0x20),Read,ACK
1.273503000000000,63,'160' (0xA0),' ' (0x20),Read,ACK
1.273527500000000,63,'160' (0xA0),' ' (0x20),Read,ACK
1.273551500000000,63,'160' (0xA0),' ' (0x20),Read,ACK
1.273576000000000,63,'160' (0xA0),' ' (0x20),Read,ACK
1.273600000000000,63,'160' (0xA0),'255' (0xFF),Read,ACK
1.273624500000000,63,'160' (0xA0),'255' (0xFF),Read,ACK
1.273648500000000,63,'160' (0xA0),'255' (0xFF),Read,ACK
1.273672500000000,63,'160' (0xA0),'255' (0xFF),Read,ACK
1.273697000000000,63,'160' (0xA0),'255' (0xFF),Read,ACK
1.273721000000000,63,'160' (0xA0),'255' (0xFF),Read,ACK
1.273745500000000,63,'160' (0xA0),'255' (0xFF),Read,ACK
1.273769500000000,63,'160' (0xA0),'255' (0xFF),Read,ACK
1.273794000000000,63,'160' (0xA0),'255' (0xFF),Read,ACK
1.273818000000000,63,'160' (0xA0),'255' (0xFF),Read,ACK
1.273842500000000,63,'160' (0xA0),'255' (0xFF),Read,ACK
1.273866500000000,63,'160' (0xA0),'255' (0xFF),Read,ACK
1.273891000000000,63,'160' (0xA0),'255' (0xFF),Read,ACK
1.273915000000000,63,'160' (0xA0),' ' (0x20),Read,ACK
1.273939500000000,63,'160' (0xA0),' ' (0x20),Read,ACK
1.273963500000000,63,'160' (0xA0),' ' (0x20),Read,ACK
1.273988000000000,63,'160' (0xA0),' ' (0x20),Read,ACK
1.274012000000000,63,'160' (0xA0),' ' (0x20),Read,ACK
1.274036500000000,63,'160' (0xA0),' ' (0x20),Read,ACK
1.274060500000000,63,'160' (0xA0),' ' (0x20),Read,ACK
1.274085000000000,63,'160' (0xA0),' ' (0x20),Read,ACK
1.274109000000000,63,'160' (0xA0),' ' (0x20),Read,ACK
1.274133000000000,63,'160' (0xA0),' ' (0x20),Read,ACK
1.274157500000000,63,'160' (0xA0),' ' (0x20),Read,ACK
1.274181500000000,63,'160' (0xA0),' ' (0x20),Read,ACK
1.274206000000000,63,'160' (0xA0),'255' (0xFF),Read,ACK
1.274230000000000,63,'160' (0xA0),'255' (0xFF),Read,ACK
1.274254500000000,63,'160' (0xA0),'255' (0xFF),Read,ACK
1.274278500000000,63,'160' (0xA0),'255' (0xFF),Read,ACK
1.274303000000000,63,'160' (0xA0),'255' (0xFF),Read,ACK
1.274327000000000,63,'160' (0xA0),'255' (0xFF),Read,ACK
1.274351500000000,63,'160' (0xA0),'255' (0xFF),Read,ACK
1.274375500000000,63,'160' (0xA0),'255' (0xFF),Read,ACK
1.274400000000000,63,'160' (0xA0),'255' (0xFF),Read,ACK
1.274424000000000,63,'160' (0xA0),'255' (0xFF),Read,ACK
1.274448500000000,63,'160' (0xA0),'255' (0xFF),Read,ACK
1.274472500000000,63,'160' (0xA0),'255' (0xFF),Read,ACK
1.274497000000000,63,'160' (0xA0),'255' (0xFF),Read,ACK
1.274521000000000,63,'160' (0xA0),' ' (0x20),Read,ACK
1.274545500000000,63,'160' (0xA0),' ' (0x20),Read,ACK
1.274569500000000,63,'160' (0xA0),' ' (0x20),Read,ACK
1.274594000000000,63,'160' (0xA0),' ' (0x20),Read,ACK
1.274618000000000,63,'160' (0xA0),' ' (0x20),Read,ACK
1.274642000000000,63,'160' (0xA0),' ' (0x20),Read,ACK
1.274666500000000,63,'160' (0xA0),' ' (0x20),Read,ACK
1.274690500000000,63,'160' (0xA0),' ' (0x20),Read,ACK
1.274715000000000,63,'160' (0xA0),' ' (0x20),Read,ACK
1.274739000000000,63,'160' (0xA0),' ' (0x20),Read,ACK
1.274763500000000,63,'160' (0xA0),' ' (0x20),Read,ACK
1.274787500000000,63,'160' (0xA0),' ' (0x20),Read,ACK
1.274812000000000,63,'160' (0xA0),'0' (0x00),Read,ACK
1.274836000000000,63,'160' (0xA0),'0' (0x00),Read,ACK
1.274860500000000,63,'160' (0xA0),'0' (0x00),Read,ACK
1.274884500000000,63,'160' (0xA0),'0' (0x00),Read,ACK
1.274909000000000,63,'160' (0xA0),'29' (0x1D),Read,ACK
1.274933000000000,63,'160' (0xA0),'215' (0xD7),Read,ACK
1.274957500000000,63,'160' (0xA0),'246' (0xF6),Read,ACK
1.274981500000000,63,'160' (0xA0),'0' (0x00),Read,ACK
1.275006000000000,63,'160' (0xA0),'209' (0xD1),Read,ACK
1.275030000000000,63,'160' (0xA0),'247' (0xF7),Read,ACK
1.275054500000000,63,'160' (0xA0),COMMA (0x2C),Read,ACK
1.275078500000000,63,'160' (0xA0),'2' (0x02),Read,ACK
1.275102500000000,63,'160' (0xA0),g (0x67),Read,ACK
1.275127000000000,63,'160' (0xA0),'137' (0x89),Read,ACK
1.275151000000000,63,'160' (0xA0),'188' (0xBC),Read,ACK
1.275175500000000,63,'160' (0xA0),\t (0x09),Read,ACK
1.275199500000000,63,'160' (0xA0),'234' (0xEA),Read,ACK
1.275224000000000,63,'160' (0xA0),'217' (0xD9),Read,ACK
1.275248000000000,63,'160' (0xA0),P (0x50),Read,ACK
1.275272500000000,63,'160' (0xA0),'0' (0x00),Read,ACK
1.275296500000000,63,'160' (0xA0),Z (0x5A),Read,ACK
1.275321000000000,63,'160' (0xA0),'185' (0xB9),Read,ACK
1.275345000000000,63,'160' (0xA0),'130' (0x82),Read,ACK
1.275369500000000,63,'160' (0xA0),'0' (0x00),Read,ACK
1.275393500000000,63,'160' (0xA0),d (0x64),Read,ACK
1.275418000000000,63,'160' (0xA0),'23' (0x17),Read,ACK
1.275442000000000,63,'160' (0xA0),R (0x52),Read,ACK
1.275466500000000,63,'160' (0xA0),'0' (0x00),Read,ACK
1.275490500000000,63,'160' (0xA0),'12' (0x0C),Read,ACK
1.275515000000000,63,'160' (0xA0),'4' (0x04),Read,ACK
1.275539000000000,63,'160' (0xA0),l (0x6C),Read,ACK
1.275563500000000,63,'160' (0xA0),s (0x73),Read,ACK
1.275587500000000,63,'160' (0xA0),i (0x69),Read,ACK
1.275611500000000,63,'160' (0xA0)," (0x22),Read,ACK
1.275636000000000,63,'160' (0xA0),'176' (0xB0),Read,ACK
1.275660000000000,63,'160' (0xA0),'2' (0x02),Read,ACK
1.275684500000000,63,'160' (0xA0),g (0x67),Read,ACK
1.275708500000000,63,'160' (0xA0),'137' (0x89),Read,ACK
1.275733000000000,63,'160' (0xA0),'188' (0xBC),Read,ACK
1.275757000000000,63,'160' (0xA0),'0' (0x00),Read,ACK
1.275781500000000,63,'160' (0xA0),! (0x21),Read,ACK
1.275805500000000,63,'160' (0xA0),'160' (0xA0),Read,ACK
1.275830000000000,63,'160' (0xA0),> (0x3E),Read,ACK
1.275854000000000,63,'160' (0xA0),'11' (0x0B),Read,ACK
1.275878500000000,63,'160' (0xA0),'243' (0xF3),Read,ACK
1.275902500000000,63,'160' (0xA0),'28' (0x1C),Read,ACK
1.275927000000000,63,'160' (0xA0),'208' (0xD0),Read,NAK
1.277330500000000,64,'160' (0xA0),'12' (0x0C),Write,ACK
1.277355000000000,64,'160' (0xA0),'208' (0xD0),Write,ACK
1.288117000000000,65,'160' (0xA0),'253' (0xFD),Read,ACK
1.288141000000000,65,'160' (0xA0),'1' (0x01),Read,ACK
1.288165000000000,65,'160' (0xA0),1 (0x31),Read,ACK
1.288190500000000,65,'160' (0xA0),2 (0x32),Read,ACK
1.288214500000000,65,'160' (0xA0),3 (0x33),Read,ACK
1.288239000000000,65,'160' (0xA0),4 (0x34),Read,NAK
1.289167000000000,66,'160' (0xA0),'12' (0x0C),Write,ACK
1.289192000000000,66,'160' (0xA0),'208' (0xD0),Write,ACK
1.299953500000000,67,'160' (0xA0),'253' (0xFD),Read,ACK
1.299978000000000,67,'160' (0xA0),'1' (0x01),Read,ACK
1.300002000000000,67,'160' (0xA0),1 (0x31),Read,ACK
1.300027000000000,67,'160' (0xA0),2 (0x32),Read,ACK
1.300051500000000,67,'160' (0xA0),3 (0x33),Read,ACK
1.300075500000000,67,'160' (0xA0),4 (0x34),Read,ACK
1.300100000000000,67,'160' (0xA0),'0' (0x00),Read,ACK
1.300124500000000,67,'160' (0xA0),2 (0x32),Read,ACK
1.300148500000000,67,'160' (0xA0),'0' (0x00),Read,ACK
1.300173000000000,67,'160' (0xA0),'0' (0x00),Read,ACK
1.300197000000000,67,'160' (0xA0),'0' (0x00),Read,ACK
1.300221500000000,67,'160' (0xA0),'0' (0x00),Read,ACK
1.300247500000000,67,'160' (0xA0),'0' (0x00),Read,ACK
1.300271500000000,67,'160' (0xA0),'0' (0x00),Read,ACK
1.300296000000000,67,'160' (0xA0),'0' (0x00),Read,ACK
1.300320000000000,67,'160' (0xA0),'0' (0x00),Read,ACK
1.300344500000000,67,'160' (0xA0),'0' (0x00),Read,ACK
1.300368500000000,67,'160' (0xA0),'0' (0x00),Read,ACK
1.300392500000000,67,'160' (0xA0),'0' (0x00),Read,ACK
1.300417000000000,67,'160' (0xA0),'0' (0x00),Read,ACK
1.300441000000000,67,'160' (0xA0),'0' (0x00),Read,ACK
1.300465500000000,67,'160' (0xA0),'0' (0x00),Read,ACK
1.300489500000000,67,'160' (0xA0),'0' (0x00),Read,ACK
1.300514000000000,67,'160' (0xA0),'0' (0x00),Read,ACK
1.300538000000000,67,'160' (0xA0),'0' (0x00),Read,ACK
1.300562500000000,67,'160' (0xA0),'0' (0x00),Read,ACK
1.300586500000000,67,'160' (0xA0),'0' (0x00),Read,ACK
1.300611000000000,67,'160' (0xA0),'0' (0x00),Read,ACK
1.300635000000000,67,'160' (0xA0),'0' (0x00),Read,ACK
1.300659500000000,67,'160' (0xA0),'0' (0x00),Read,ACK
1.300683500000000,67,'160' (0xA0),'0' (0x00),Read,ACK
1.300708000000000,67,'160' (0xA0),'0' (0x00),Read,ACK
1.300732000000000,67,'160' (0xA0),'0' (0x00),Read,ACK
1.300756500000000,67,'160' (0xA0),'0' (0x00),Read,ACK
1.300780500000000,67,'160' (0xA0),'0' (0x00),Read,ACK
1.300805000000000,67,'160' (0xA0),'0' (0x00),Read,ACK
1.300829000000000,67,'160' (0xA0),'0' (0x00),Read,ACK
1.300853500000000,67,'160' (0xA0),'0' (0x00),Read,ACK
1.300877500000000,67,'160' (0xA0),'0' (0x00),Read,ACK
1.300901500000000,67,'160' (0xA0),'0' (0x00),Read,ACK
1.300926000000000,67,'160' (0xA0),'0' (0x00),Read,ACK
1.300950000000000,67,'160' (0xA0),'0' (0x00),Read,ACK
1.300974500000000,67,'160' (0xA0),'0' (0x00),Read,ACK
1.300998500000000,67,'160' (0xA0),'0' (0x00),Read,ACK
1.301023000000000,67,'160' (0xA0),'0' (0x00),Read,ACK
1.301047000000000,67,'160' (0xA0),'0' (0x00),Read,ACK
1.301071500000000,67,'160' (0xA0),'0' (0x00),Read,ACK
1.301095500000000,67,'160' (0xA0),'255' (0xFF),Read,ACK
1.301120000000000,67,'160' (0xA0),'255' (0xFF),Read,ACK
1.301144000000000,67,'160' (0xA0),'255' (0xFF),Read,ACK
1.301168500000000,67,'160' (0xA0),'255' (0xFF),Read,ACK
1.301192500000000,67,'160' (0xA0),'255' (0xFF),Read,ACK
1.301217000000000,67,'160' (0xA0),'255' (0xFF),Read,ACK
1.301241000000000,67,'160' (0xA0),'255' (0xFF),Read,ACK
1.301265500000000,67,'160' (0xA0),'255' (0xFF),Read,ACK
1.301289500000000,67,'160' (0xA0),'255' (0xFF),Read,ACK
1.301314000000000,67,'160' (0xA0),'255' (0xFF),Read,ACK
1.301338000000000,67,'160' (0xA0),'255' (0xFF),Read,ACK
1.301362000000000,67,'160' (0xA0),'255' (0xFF),Read,ACK
1.301386500000000,67,'160' (0xA0),'255' (0xFF),Read,ACK
1.301410500000000,67,'160' (0xA0),'255' (0xFF),Read,ACK
1.301435000000000,67,'160' (0xA0),'255' (0xFF),Read,ACK
1.301459000000000,67,'160' (0xA0),'255' (0xFF),Read,ACK
1.301483500000000,67,'160' (0xA0),'255' (0xFF),Read,ACK
1.301507500000000,67,'160' (0xA0),'255' (0xFF),Read,ACK
1.301532000000000,67,'160' (0xA0),'255' (0xFF),Read,ACK
1.301556000000000,67,'160' (0xA0),'255' (0xFF),Read,ACK
1.301580500000000,67,'160' (0xA0),'255' (0xFF),Read,ACK
1.301604500000000,67,'160' (0xA0),'255' (0xFF),Read,ACK
1.301629000000000,67,'160' (0xA0),'255' (0xFF),Read,ACK
1.301653000000000,67,'160' (0xA0),'255' (0xFF),Read,ACK
1.301677500000000,67,'160' (0xA0),'255' (0xFF),Read,ACK
1.301701500000000,67,'160' (0xA0),'255' (0xFF),Read,ACK
1.301726000000000,67,'160' (0xA0),'255' (0xFF),Read,ACK
1.301750000000000,67,'160' (0xA0),'255' (0xFF),Read,ACK
1.301774500000000,67,'160' (0xA0),'255' (0xFF),Read,ACK
1.301798500000000,67,'160' (0xA0),'255' (0xFF),Read,ACK
1.301823000000000,67,'160' (0xA0),'255' (0xFF),Read,ACK
1.301847000000000,67,'160' (0xA0),'255' (0xFF),Read,ACK
1.301871000000000,67,'160' (0xA0),'255' (0xFF),Read,ACK
1.301895500000000,67,'160' (0xA0),'255' (0xFF),Read,ACK
1.301919500000000,67,'160' (0xA0),'255' (0xFF),Read,ACK
1.301944000000000,67,'160' (0xA0),'255' (0xFF),Read,ACK
1.301968000000000,67,'160' (0xA0),'255' (0xFF),Read,ACK
1.301992500000000,67,'160' (0xA0),'255' (0xFF),Read,ACK
1.302016500000000,67,'160' (0xA0),'255' (0xFF),Read,ACK
1.302041000000000,67,'160' (0xA0),'255' (0xFF),Read,ACK
1.302065000000000,67,'160' (0xA0),'255' (0xFF),Read,ACK
1.302089500000000,67,'160' (0xA0),'255' (0xFF),Read,ACK
1.302113500000000,67,'160' (0xA0),'255' (0xFF),Read,ACK
1.302138000000000,67,'160' (0xA0),'255' (0xFF),Read,ACK
1.302162000000000,67,'160' (0xA0),'255' (0xFF),Read,ACK
1.302186500000000,67,'160' (0xA0),'255' (0xFF),Read,ACK
1.302210500000000,67,'160' (0xA0),'255' (0xFF),Read,ACK
1.302235000000000,67,'160' (0xA0),'255' (0xFF),Read,ACK
1.302259000000000,67,'160' (0xA0),'255' (0xFF),Read,ACK
1.302283500000000,67,'160' (0xA0),'255' (0xFF),Read,ACK
1.302307500000000,67,'160' (0xA0),'255' (0xFF),Read,ACK
1.302331500000000,67,'160' (0xA0),'255' (0xFF),Read,ACK
1.302356000000000,67,'160' (0xA0),'255' (0xFF),Read,ACK
1.302380000000000,67,'160' (0xA0),'255' (0xFF),Read,ACK
1.302404500000000,67,'160' (0xA0),'255' (0xFF),Read,ACK
1.302428500000000,67,'160' (0xA0),'255' (0xFF),Read,ACK
1.302453000000000,67,'160' (0xA0),'255' (0xFF),Read,ACK
1.302477000000000,67,'160' (0xA0),'255' (0xFF),Read,ACK
1.302501500000000,67,'160' (0xA0),'255' (0xFF),Read,ACK
1.302525500000000,67,'160' (0xA0),'255' (0xFF),Read,ACK
1.302550000000000,67,'160' (0xA0),'255' (0xFF),Read,ACK
1.302574000000000,67,'160' (0xA0),'255' (0xFF),Read,ACK
1.302598500000000,67,'160' (0xA0),'255' (0xFF),Read,ACK
1.302622500000000,67,'160' (0xA0),'255' (0xFF),Read,ACK
1.302647000000000,67,'160' (0xA0),'255' (0xFF),Read,ACK
1.302671000000000,67,'160' (0xA0),'255' (0xFF),Read,ACK
1.302695500000000,67,'160' (0xA0),'255' (0xFF),Read,ACK
1.302719500000000,67,'160' (0xA0),'255' (0xFF),Read,ACK
1.302744000000000,67,'160' (0xA0),'255' (0xFF),Read,ACK
1.302768000000000,67,'160' (0xA0),'255' (0xFF),Read,ACK
1.302792500000000,67,'160' (0xA0),'255' (0xFF),Read,ACK
1.302816500000000,67,'160' (0xA0),'255' (0xFF),Read,ACK
1.302840500000000,67,'160' (0xA0),'255' (0xFF),Read,ACK
1.302865000000000,67,'160' (0xA0),'255' (0xFF),Read,ACK
1.302889000000000,67,'160' (0xA0),'255' (0xFF),Read,ACK
1.302913500000000,67,'160' (0xA0),'255' (0xFF),Read,ACK
1.302937500000000,67,'160' (0xA0),'255' (0xFF),Read,ACK
1.302962000000000,67,'160' (0xA0),'255' (0xFF),Read,ACK
1.302986000000000,67,'160' (0xA0),'255' (0xFF),Read,ACK
1.303010500000000,67,'160' (0xA0),'255' (0xFF),Read,ACK
1.303034500000000,67,'160' (0xA0),'255' (0xFF),Read,ACK
1.303059000000000,67,'160' (0xA0),'255' (0xFF),Read,ACK
1.303083000000000,67,'160' (0xA0),'255' (0xFF),Read,ACK
1.303107500000000,67,'160' (0xA0),'255' (0xFF),Read,ACK
1.303131500000000,67,'160' (0xA0),'255' (0xFF),Read,ACK
1.303156000000000,67,'160' (0xA0),'255' (0xFF),Read,ACK
1.303180000000000,67,'160' (0xA0),'255' (0xFF),Read,ACK
1.303204500000000,67,'160' (0xA0),'255' (0xFF),Read,ACK
1.303228500000000,67,'160' (0xA0),'255' (0xFF),Read,ACK
1.303253000000000,67,'160' (0xA0),'255' (0xFF),Read,ACK
1.303277000000000,67,'160' (0xA0),'255' (0xFF),Read,ACK
1.303301500000000,67,'160' (0xA0),'255' (0xFF),Read,ACK
1.303325500000000,67,'160' (0xA0),'255' (0xFF),Read,ACK
1.303349500000000,67,'160' (0xA0),'255' (0xFF),Read,ACK
1.303374000000000,67,'160' (0xA0),'255' (0xFF),Read,ACK
1.303398000000000,67,'160' (0xA0),'255' (0xFF),Read,ACK
1.303422500000000,67,'160' (0xA0),'255' (0xFF),Read,ACK
1.303446500000000,67,'160' (0xA0),'255' (0xFF),Read,ACK
1.303471000000000,67,'160' (0xA0),'255' (0xFF),Read,ACK
1.303495000000000,67,'160' (0xA0),'255' (0xFF),Read,ACK
1.303519500000000,67,'160' (0xA0),'255' (0xFF),Read,ACK
1.303543500000000,67,'160' (0xA0),'255' (0xFF),Read,ACK
1.303568000000000,67,'160' (0xA0),'255' (0xFF),Read,ACK
1.303592000000000,67,'160' (0xA0),'255' (0xFF),Read,ACK
1.303616500000000,67,'160' (0xA0),'255' (0xFF),Read,ACK
1.303640500000000,67,'160' (0xA0),'255' (0xFF),Read,ACK
1.303665000000000,67,'160' (0xA0),'255' (0xFF),Read,ACK
1.303689000000000,67,'160' (0xA0),'255' (0xFF),Read,ACK
1.303713500000000,67,'160' (0xA0),'255' (0xFF),Read,ACK
1.303737500000000,67,'160' (0xA0),'255' (0xFF),Read,ACK
1.303762000000000,67,'160' (0xA0),'255' (0xFF),Read,ACK
1.303786000000000,67,'160' (0xA0),'255' (0xFF),Read,ACK
1.303810000000000,67,'160' (0xA0),'255' (0xFF),Read,ACK
1.303834500000000,67,'160' (0xA0),'255' (0xFF),Read,ACK
1.303858500000000,67,'160' (0xA0),'255' (0xFF),Read,ACK
1.303883000000000,67,'160' (0xA0),'255' (0xFF),Read,ACK
1.303907000000000,67,'160' (0xA0),'255' (0xFF),Read,ACK
1.303931500000000,67,'160' (0xA0),'255' (0xFF),Read,ACK
1.303955500000000,67,'160' (0xA0),'255' (0xFF),Read,ACK
1.303980000000000,67,'160' (0xA0),'255' (0xFF),Read,ACK
1.304004000000000,67,'160' (0xA0),'255' (0xFF),Read,ACK
1.304028500000000,67,'160' (0xA0),'255' (0xFF),Read,ACK
1.304052500000000,67,'160' (0xA0),'255' (0xFF),Read,ACK
1.304077000000000,67,'160' (0xA0),'255' (0xFF),Read,ACK
1.304101000000000,67,'160' (0xA0),'255' (0xFF),Read,ACK
1.304125500000000,67,'160' (0xA0),'255' (0xFF),Read,ACK
1.304149500000000,67,'160' (0xA0),'255' (0xFF),Read,ACK
1.304174000000000,67,'160' (0xA0),'255' (0xFF),Read,ACK
1.304198000000000,67,'160' (0xA0),'255' (0xFF),Read,ACK
1.304222500000000,67,'160' (0xA0),'255' (0xFF),Read,ACK
1.304246500000000,67,'160' (0xA0),'255' (0xFF),Read,ACK
1.304271000000000,67,'160' (0xA0),'255' (0xFF),Read,ACK
1.304295000000000,67,'160' (0xA0),'255' (0xFF),Read,ACK
1.304319000000000,67,'160' (0xA0),'255' (0xFF),Read,ACK
1.304343500000000,67,'160' (0xA0),'255' (0xFF),Read,ACK
1.304367500000000,67,'160' (0xA0),'255' (0xFF),Read,ACK
1.304392000000000,67,'160' (0xA0),'255' (0xFF),Read,ACK
1.304416000000000,67,'160' (0xA0),'255' (0xFF),Read,ACK
1.304440500000000,67,'160' (0xA0),'255' (0xFF),Read,ACK
1.304464500000000,67,'160' (0xA0),'255' (0xFF),Read,ACK
1.304489000000000,67,'160' (0xA0),'255' (0xFF),Read,ACK
1.304513000000000,67,'160' (0xA0),'255' (0xFF),Read,ACK
1.304537500000000,67,'160' (0xA0),'255' (0xFF),Read,ACK
1.304561500000000,67,'160' (0xA0),'255' (0xFF),Read,ACK
1.304586000000000,67,'160' (0xA0),'255' (0xFF),Read,ACK
1.304610000000000,67,'160' (0xA0),'255' (0xFF),Read,ACK
1.304634500000000,67,'160' (0xA0),'255' (0xFF),Read,ACK
1.304658500000000,67,'160' (0xA0),'255' (0xFF),Read,ACK
1.304683000000000,67,'160' (0xA0),'255' (0xFF),Read,ACK
1.304707000000000,67,'160' (0xA0),'255' (0xFF),Read,ACK
1.304731500000000,67,'160' (0xA0),'255' (0xFF),Read,ACK
1.304755500000000,67,'160' (0xA0),'255' (0xFF),Read,ACK
1.304779500000000,67,'160' (0xA0),'255' (0xFF),Read,ACK
1.304804000000000,67,'160' (0xA0),'255' (0xFF),Read,ACK
1.304828000000000,67,'160' (0xA0),'255' (0xFF),Read,ACK
1.304852500000000,67,'160' (0xA0),'255' (0xFF),Read,ACK
1.304876500000000,67,'160' (0xA0),'255' (0xFF),Read,ACK
1.304901000000000,67,'160' (0xA0),'255' (0xFF),Read,ACK
1.304925000000000,67,'160' (0xA0),'255' (0xFF),Read,ACK
1.304949500000000,67,'160' (0xA0),'255' (0xFF),Read,ACK
1.304973500000000,67,'160' (0xA0),'255' (0xFF),Read,ACK
1.304998000000000,67,'160' (0xA0),'255' (0xFF),Read,ACK
1.305022000000000,67,'160' (0xA0),'255' (0xFF),Read,ACK
1.305046500000000,67,'160' (0xA0),'255' (0xFF),Read,ACK
1.305070500000000,67,'160' (0xA0),'255' (0xFF),Read,ACK
1.305095000000000,67,'160' (0xA0),'255' (0xFF),Read,ACK
1.305119000000000,67,'160' (0xA0),'255' (0xFF),Read,ACK
1.305143500000000,67,'160' (0xA0),'255' (0xFF),Read,ACK
1.305167500000000,67,'160' (0xA0),'255' (0xFF),Read,ACK
1.305192000000000,67,'160' (0xA0),'255' (0xFF),Read,ACK
1.305216000000000,67,'160' (0xA0),'255' (0xFF),Read,ACK
1.305240500000000,67,'160' (0xA0),'255' (0xFF),Read,ACK
1.305264500000000,67,'160' (0xA0),'255' (0xFF),Read,ACK
1.305288500000000,67,'160' (0xA0),'255' (0xFF),Read,ACK
1.305313000000000,67,'160' (0xA0),'255' (0xFF),Read,ACK
1.305337000000000,67,'160' (0xA0),'255' (0xFF),Read,ACK
1.305361500000000,67,'160' (0xA0),'255' (0xFF),Read,ACK
1.305385500000000,67,'160' (0xA0),'255' (0xFF),Read,ACK
1.305410000000000,67,'160' (0xA0),'255' (0xFF),Read,ACK
1.305434000000000,67,'160' (0xA0),'255' (0xFF),Read,ACK
1.305458500000000,67,'160' (0xA0),'255' (0xFF),Read,ACK
1.305482500000000,67,'160' (0xA0),'255' (0xFF),Read,ACK
1.305507000000000,67,'160' (0xA0),'255' (0xFF),Read,ACK
1.305531000000000,67,'160' (0xA0),'255' (0xFF),Read,ACK
1.305555500000000,67,'160' (0xA0),'255' (0xFF),Read,ACK
1.305579500000000,67,'160' (0xA0),'255' (0xFF),Read,ACK
1.305604000000000,67,'160' (0xA0),'255' (0xFF),Read,ACK
1.305628000000000,67,'160' (0xA0),'255' (0xFF),Read,ACK
1.305652500000000,67,'160' (0xA0),'255' (0xFF),Read,ACK
1.305676500000000,67,'160' (0xA0),'255' (0xFF),Read,ACK
1.305701000000000,67,'160' (0xA0),'255' (0xFF),Read,ACK
1.305725000000000,67,'160' (0xA0),'255' (0xFF),Read,ACK
1.305749000000000,67,'160' (0xA0),'255' (0xFF),Read,ACK
1.305773500000000,67,'160' (0xA0),'255' (0xFF),Read,ACK
1.305797500000000,67,'160' (0xA0),'255' (0xFF),Read,ACK
1.305822000000000,67,'160' (0xA0),'255' (0xFF),Read,ACK
1.305846000000000,67,'160' (0xA0),'255' (0xFF),Read,ACK
1.305870500000000,67,'160' (0xA0),'255' (0xFF),Read,ACK
1.305894500000000,67,'160' (0xA0),'255' (0xFF),Read,ACK
1.305919000000000,67,'160' (0xA0),'255' (0xFF),Read,ACK
1.305943000000000,67,'160' (0xA0),'255' (0xFF),Read,ACK
1.305967500000000,67,'160' (0xA0),'255' (0xFF),Read,ACK
1.305991500000000,67,'160' (0xA0),'255' (0xFF),Read,ACK
1.306016000000000,67,'160' (0xA0),'255' (0xFF),Read,ACK
1.306040000000000,67,'160' (0xA0),'255' (0xFF),Read,ACK
1.306064500000000,67,'160' (0xA0),'255' (0xFF),Read,ACK
1.306088500000000,67,'160' (0xA0),'255' (0xFF),Read,ACK
1.306113000000000,67,'160' (0xA0),'255' (0xFF),Read,ACK
1.306137000000000,67,'160' (0xA0),'255' (0xFF),Read,ACK
1.306161500000000,67,'160' (0xA0),'255' (0xFF),Read,ACK
1.306185500000000,67,'160' (0xA0),'255' (0xFF),Read,ACK
1.306210000000000,67,'160' (0xA0),'255' (0xFF),Read,ACK
1.306234000000000,67,'160' (0xA0),'255' (0xFF),Read,ACK
1.306258000000000,67,'160' (0xA0),'255' (0xFF),Read,ACK
1.306282500000000,67,'160' (0xA0),'255' (0xFF),Read,ACK
1.306306500000000,67,'160' (0xA0),'255' (0xFF),Read,ACK
1.306331000000000,67,'160' (0xA0),'255' (0xFF),Read,ACK
1.306355000000000,67,'160' (0xA0),'255' (0xFF),Read,ACK
1.306379500000000,67,'160' (0xA0),'255' (0xFF),Read,ACK
1.306403500000000,67,'160' (0xA0),'255' (0xFF),Read,ACK
1.306428000000000,67,'160' (0xA0),'255' (0xFF),Read,ACK
1.306452000000000,67,'160' (0xA0),'255' (0xFF),Read,ACK
1.306476500000000,67,'160' (0xA0),'255' (0xFF),Read,ACK
1.306500500000000,67,'160' (0xA0),'255' (0xFF),Read,ACK
1.306525000000000,67,'160' (0xA0),'255' (0xFF),Read,ACK
1.306549000000000,67,'160' (0xA0),'255' (0xFF),Read,ACK
1.306573500000000,67,'160' (0xA0),'255' (0xFF),Read,ACK
1.306597500000000,67,'160' (0xA0),'255' (0xFF),Read,ACK
1.306622000000000,67,'160' (0xA0),'255' (0xFF),Read,ACK
1.306646000000000,67,'160' (0xA0),'255' (0xFF),Read,ACK
1.306670500000000,67,'160' (0xA0),'255' (0xFF),Read,ACK
1.306694500000000,67,'160' (0xA0),'255' (0xFF),Read,ACK
1.306718500000000,67,'160' (0xA0),'255' (0xFF),Read,ACK
1.306743000000000,67,'160' (0xA0),'255' (0xFF),Read,ACK
1.306767000000000,67,'160' (0xA0),'255' (0xFF),Read,ACK
1.306791500000000,67,'160' (0xA0),'255' (0xFF),Read,ACK
1.306815500000000,67,'160' (0xA0),'255' (0xFF),Read,ACK
1.306840000000000,67,'160' (0xA0),'255' (0xFF),Read,ACK
1.306864000000000,67,'160' (0xA0),'255' (0xFF),Read,ACK
1.306888500000000,67,'160' (0xA0),'255' (0xFF),Read,ACK
1.306912500000000,67,'160' (0xA0),'255' (0xFF),Read,ACK
1.306937000000000,67,'160' (0xA0),'255' (0xFF),Read,ACK
1.306961000000000,67,'160' (0xA0),'255' (0xFF),Read,ACK
1.306985500000000,67,'160' (0xA0),'255' (0xFF),Read,ACK
1.307009500000000,67,'160' (0xA0),'255' (0xFF),Read,ACK
1.307034000000000,67,'160' (0xA0),'255' (0xFF),Read,ACK
1.307058000000000,67,'160' (0xA0),'255' (0xFF),Read,ACK
1.307082500000000,67,'160' (0xA0),'255' (0xFF),Read,ACK
1.307106500000000,67,'160' (0xA0),'255' (0xFF),Read,ACK
1.307131000000000,67,'160' (0xA0),'255' (0xFF),Read,ACK
1.307155000000000,67,'160' (0xA0),'255' (0xFF),Read,ACK
1.307179500000000,67,'160' (0xA0),'255' (0xFF),Read,ACK
1.307203500000000,67,'160' (0xA0),'255' (0xFF),Read,ACK
1.307227500000000,67,'160' (0xA0),'255' (0xFF),Read,ACK
1.307252000000000,67,'160' (0xA0),'255' (0xFF),Read,ACK
1.307276000000000,67,'160' (0xA0),'255' (0xFF),Read,ACK
1.307300500000000,67,'160' (0xA0),'255' (0xFF),Read,ACK
1.307324500000000,67,'160' (0xA0),'255' (0xFF),Read,ACK
1.307349000000000,67,'160' (0xA0),'255' (0xFF),Read,ACK
1.307373000000000,67,'160' (0xA0),'255' (0xFF),Read,ACK
1.307397500000000,67,'160' (0xA0),'255' (0xFF),Read,ACK
1.307421500000000,67,'160' (0xA0),'255' (0xFF),Read,ACK
1.307446000000000,67,'160' (0xA0),'255' (0xFF),Read,ACK
1.307470000000000,67,'160' (0xA0),'255' (0xFF),Read,ACK
1.307494500000000,67,'160' (0xA0),'255' (0xFF),Read,ACK
1.307518500000000,67,'160' (0xA0),'255' (0xFF),Read,ACK
1.307543000000000,67,'160' (0xA0),'255' (0xFF),Read,ACK
1.307567000000000,67,'160' (0xA0),'255' (0xFF),Read,ACK
1.307591500000000,67,'160' (0xA0),'255' (0xFF),Read,ACK
1.307615500000000,67,'160' (0xA0),'255' (0xFF),Read,ACK
1.307640000000000,67,'160' (0xA0),'255' (0xFF),Read,ACK
1.307664000000000,67,'160' (0xA0),'255' (0xFF),Read,ACK
1.307688000000000,67,'160' (0xA0),'255' (0xFF),Read,ACK
1.307712500000000,67,'160' (0xA0),'255' (0xFF),Read,ACK
1.307736500000000,67,'160' (0xA0),'255' (0xFF),Read,ACK
1.307761000000000,67,'160' (0xA0),'255' (0xFF),Read,ACK
1.307785000000000,67,'160' (0xA0),'255' (0xFF),Read,ACK
1.307809500000000,67,'160' (0xA0),'255' (0xFF),Read,ACK
1.307833500000000,67,'160' (0xA0),'255' (0xFF),Read,ACK
1.307858000000000,67,'160' (0xA0),'255' (0xFF),Read,ACK
1.307882000000000,67,'160' (0xA0),'255' (0xFF),Read,ACK
1.307906500000000,67,'160' (0xA0),'255' (0xFF),Read,ACK
1.307930500000000,67,'160' (0xA0),'255' (0xFF),Read,ACK
1.307955000000000,67,'160' (0xA0),'255' (0xFF),Read,ACK
1.307979000000000,67,'160' (0xA0),'255' (0xFF),Read,ACK
1.308003500000000,67,'160' (0xA0),'255' (0xFF),Read,ACK
1.308027500000000,67,'160' (0xA0),'255' (0xFF),Read,ACK
1.308052000000000,67,'160' (0xA0),'255' (0xFF),Read,ACK
1.308076000000000,67,'160' (0xA0),'255' (0xFF),Read,ACK
1.308100500000000,67,'160' (0xA0),'194' (0xC2),Read,ACK
1.308124500000000,67,'160' (0xA0),'8' (0x08),Read,ACK
1.308149000000000,67,'160' (0xA0),1 (0x31),Read,ACK
1.308173000000000,67,'160' (0xA0),2 (0x32),Read,ACK
1.308197000000000,67,'160' (0xA0),3 (0x33),Read,ACK
1.308221500000000,67,'160' (0xA0),4 (0x34),Read,ACK
1.308245500000000,67,'160' (0xA0),'138' (0x8A),Read,ACK
1.308270000000000,67,'160' (0xA0),'212' (0xD4),Read,ACK
1.308294000000000,67,'160' (0xA0),'206' (0xCE),Read,ACK
1.308318500000000,67,'160' (0xA0),'30' (0x1E),Read,ACK
1.308342500000000,67,'160' (0xA0),\r (0x0D),Read,ACK
1.308367000000000,67,'160' (0xA0),'171' (0xAB),Read,ACK
1.308391000000000,67,'160' (0xA0),j (0x6A),Read,ACK
1.308415500000000,67,'160' (0xA0),V (0x56),Read,ACK
1.308439500000000,67,'160' (0xA0),'187' (0xBB),Read,ACK
1.308464000000000,67,'160' (0xA0),'182' (0xB6),Read,ACK
1.308488000000000,67,'160' (0xA0),'223' (0xDF),Read,ACK
1.308512500000000,67,'160' (0xA0),'127' (0x7F),Read,ACK
1.308536500000000,67,'160' (0xA0),n (0x6E),Read,ACK
1.308561000000000,67,'160' (0xA0),'169' (0xA9),Read,ACK
1.308585000000000,67,'160' (0xA0),'166' (0xA6),Read,ACK
1.308609500000000,67,'160' (0xA0),'139' (0x8B),Read,ACK
1.308633500000000,67,'160' (0xA0),D (0x44),Read,ACK
1.308658000000000,67,'160' (0xA0),I (0x49),Read,ACK
1.308682000000000,67,'160' (0xA0),'19' (0x13),Read,ACK
1.308706000000000,67,'160' (0xA0),o (0x6F),Read,ACK
1.308730500000000,67,'160' (0xA0),'24' (0x18),Read,ACK
1.308754500000000,67,'160' (0xA0),'141' (0x8D),Read,ACK
1.308779000000000,67,'160' (0xA0),'223' (0xDF),Read,ACK
1.308803000000000,67,'160' (0xA0),'134' (0x86),Read,ACK
1.308827500000000,67,'160' (0xA0),H (0x48),Read,ACK
1.308851500000000,67,'160' (0xA0),B (0x42),Read,ACK
1.308876000000000,67,'160' (0xA0),'11' (0x0B),Read,ACK
1.308900000000000,67,'160' (0xA0),'152' (0x98),Read,ACK
1.308924500000000,67,'160' (0xA0),'234' (0xEA),Read,ACK
1.308948500000000,67,'160' (0xA0),p (0x70),Read,ACK
1.308973000000000,67,'160' (0xA0),. (0x2E),Read,ACK
1.308997000000000,67,'160' (0xA0),p (0x70),Read,ACK
1.309021500000000,67,'160' (0xA0),'190' (0xBE),Read,ACK
1.309045500000000,67,'160' (0xA0),'179' (0xB3),Read,ACK
1.309070000000000,67,'160' (0xA0),'244' (0xF4),Read,ACK
1.309094000000000,67,'160' (0xA0),n (0x6E),Read,ACK
1.309118500000000,67,'160' (0xA0),'242' (0xF2),Read,ACK
1.309142500000000,67,'160' (0xA0),x (0x78),Read,ACK
1.309166500000000,67,'160' (0xA0),'223' (0xDF),Read,ACK
1.309191000000000,67,'160' (0xA0),'134' (0x86),Read,ACK
1.309215000000000,67,'160' (0xA0),H (0x48),Read,ACK
1.309239500000000,67,'160' (0xA0),B (0x42),Read,ACK
1.309263500000000,67,'160' (0xA0),'11' (0x0B),Read,ACK
1.309288000000000,67,'160' (0xA0),'152' (0x98),Read,ACK
1.309312000000000,67,'160' (0xA0),'29' (0x1D),Read,ACK
1.309336500000000,67,'160' (0xA0),'139' (0x8B),Read,ACK
1.309360500000000,67,'160' (0xA0),+ (0x2B),Read,ACK
1.309385000000000,67,'160' (0xA0),q (0x71),Read,ACK
1.309409000000000,67,'160' (0xA0),U (0x55),Read,ACK
1.309433500000000,67,'160' (0xA0),Y (0x59),Read,ACK
1.309457500000000,67,'160' (0xA0),'14' (0x0E),Read,ACK
1.309482000000000,67,'160' (0xA0),'159' (0x9F),Read,ACK
1.309506000000000,67,'160' (0xA0),'239' (0xEF),Read,ACK
1.309530500000000,67,'160' (0xA0),{ (0x7B),Read,ACK
1.309554500000000,67,'160' (0xA0),'218' (0xDA),Read,ACK
1.309579000000000,67,'160' (0xA0),'129' (0x81),Read,ACK
1.309603000000000,67,'160' (0xA0),'187' (0xBB),Read,ACK
1.309627500000000,67,'160' (0xA0),'180' (0xB4),Read,ACK
1.309651500000000,67,'160' (0xA0),'251' (0xFB),Read,ACK
1.309675500000000,67,'160' (0xA0),k (0x6B),Read,ACK
1.309700000000000,67,'160' (0xA0),'241' (0xF1),Read,ACK
1.309724000000000,67,'160' (0xA0),e (0x65),Read,ACK
1.309748500000000,67,'160' (0xA0),'192' (0xC0),Read,ACK
1.309772500000000,67,'160' (0xA0),'155' (0x9B),Read,ACK
1.309797000000000,67,'160' (0xA0),K (0x4B),Read,ACK
1.309821000000000,67,'160' (0xA0),G (0x47),Read,ACK
1.309845500000000,67,'160' (0xA0),'12' (0x0C),Read,ACK
1.309869500000000,67,'160' (0xA0),'157' (0x9D),Read,ACK
1.309894000000000,67,'160' (0xA0),'29' (0x1D),Read,ACK
1.309918000000000,67,'160' (0xA0),'136' (0x88),Read,ACK
1.309942500000000,67,'160' (0xA0),+ (0x2B),Read,ACK
1.309966500000000,67,'160' (0xA0),q (0x71),Read,ACK
1.309991000000000,67,'160' (0xA0),'187' (0xBB),Read,ACK
1.310015000000000,67,'160' (0xA0),'182' (0xB6),Read,ACK
1.310039500000000,67,'160' (0xA0),'156' (0x9C),Read,ACK
1.310063500000000,67,'160' (0xA0),'156' (0x9C),Read,ACK
1.310088000000000,67,'160' (0xA0),'29' (0x1D),Read,ACK
1.310112000000000,67,'160' (0xA0),'248' (0xF8),Read,ACK
1.310136000000000,67,'160' (0xA0),'186' (0xBA),Read,ACK
1.310160500000000,67,'160' (0xA0),'224' (0xE0),Read,ACK
1.310184500000000,67,'160' (0xA0),'187' (0xBB),Read,ACK
1.310209000000000,67,'160' (0xA0),I (0x49),Read,ACK
1.310233000000000,67,'160' (0xA0),'254' (0xFE),Read,ACK
1.310257500000000,67,'160' (0xA0),'145' (0x91),Read,ACK
1.310281500000000,67,'160' (0xA0),'29' (0x1D),Read,ACK
1.310306000000000,67,'160' (0xA0),w (0x77),Read,ACK
1.310330000000000,67,'160' (0xA0),. (0x2E),Read,ACK
1.310354500000000,67,'160' (0xA0),'139' (0x8B),Read,ACK
1.310378500000000,67,'160' (0xA0),'187' (0xBB),Read,ACK
1.310403000000000,67,'160' (0xA0),I (0x49),Read,ACK
1.310427000000000,67,'160' (0xA0),'254' (0xFE),Read,ACK
1.310451500000000,67,'160' (0xA0),'145' (0x91),Read,ACK
1.310475500000000,67,'160' (0xA0),'29' (0x1D),Read,ACK
1.310500000000000,67,'160' (0xA0),w (0x77),Read,ACK
1.310524000000000,67,'160' (0xA0),. (0x2E),Read,ACK
1.310548500000000,67,'160' (0xA0),'139' (0x8B),Read,ACK
1.310572500000000,67,'160' (0xA0),D (0x44),Read,ACK
1.310597000000000,67,'160' (0xA0),I (0x49),Read,ACK
1.310621000000000,67,'160' (0xA0),'1' (0x01),Read,ACK
1.310645000000000,67,'160' (0xA0),'145' (0x91),Read,ACK
1.310669500000000,67,'160' (0xA0),'226' (0xE2),Read,ACK
1.310693500000000,67,'160' (0xA0),w (0x77),Read,ACK
1.310718000000000,67,'160' (0xA0),. (0x2E),Read,ACK
1.310742000000000,67,'160' (0xA0),t (0x74),Read,ACK
1.310766500000000,67,'160' (0xA0),'187' (0xBB),Read,ACK
1.310790500000000,67,'160' (0xA0),'182' (0xB6),Read,ACK
1.310815000000000,67,'160' (0xA0),'254' (0xFE),Read,ACK
1.310839000000000,67,'160' (0xA0),n (0x6E),Read,ACK
1.310863500000000,67,'160' (0xA0),'29' (0x1D),Read,ACK
1.310887500000000,67,'160' (0xA0),'136' (0x88),Read,ACK
1.310912000000000,67,'160' (0xA0),'209' (0xD1),Read,ACK
1.310936000000000,67,'160' (0xA0),'139' (0x8B),Read,ACK
1.310960500000000,67,'160' (0xA0),D (0x44),Read,ACK
1.310984500000000,67,'160' (0xA0),I (0x49),Read,ACK
1.311009000000000,67,'160' (0xA0),'1' (0x01),Read,ACK
1.311033000000000,67,'160' (0xA0),'145' (0x91),Read,ACK
1.311057500000000,67,'160' (0xA0),'226' (0xE2),Read,ACK
1.311081500000000,67,'160' (0xA0),w (0x77),Read,ACK
1.311105500000000,67,'160' (0xA0),'209' (0xD1),Read,ACK
1.311130000000000,67,'160' (0xA0),'139' (0x8B),Read,ACK
1.311154000000000,67,'160' (0xA0),D (0x44),Read,ACK
1.311178500000000,67,'160' (0xA0),I (0x49),Read,ACK
1.311202500000000,67,'160' (0xA0),'1' (0x01),Read,ACK
1.311227000000000,67,'160' (0xA0),'145' (0x91),Read,ACK
1.311251000000000,67,'160' (0xA0),'29' (0x1D),Read,ACK
1.311275500000000,67,'160' (0xA0),'136' (0x88),Read,ACK
1.311299500000000,67,'160' (0xA0),. (0x2E),Read,ACK
1.311324000000000,67,'160' (0xA0),t (0x74),Read,ACK
1.311348000000000,67,'160' (0xA0),'187' (0xBB),Read,ACK
1.311372500000000,67,'160' (0xA0),'182' (0xB6),Read,ACK
1.311396500000000,67,'160' (0xA0),'254' (0xFE),Read,ACK
1.311421000000000,67,'160' (0xA0),n (0x6E),Read,ACK
1.311445000000000,67,'160' (0xA0),'226' (0xE2),Read,ACK
1.311469500000000,67,'160' (0xA0),w (0x77),Read,ACK
1.311493500000000,67,'160' (0xA0),'209' (0xD1),Read,ACK
1.311518000000000,67,'160' (0xA0),'139' (0x8B),Read,ACK
1.311542000000000,67,'160' (0xA0),D (0x44),Read,ACK
1.311566500000000,67,'160' (0xA0),I (0x49),Read,ACK
1.311590500000000,67,'160' (0xA0),'1' (0x01),Read,ACK
1.311614500000000,67,'160' (0xA0),'145' (0x91),Read,ACK
1.311639000000000,67,'160' (0xA0),'226' (0xE2),Read,ACK
1.311663000000000,67,'160' (0xA0),w (0x77),Read,ACK
1.311687500000000,67,'160' (0xA0),'209' (0xD1),Read,ACK
1.311711500000000,67,'160' (0xA0),'139' (0x8B),Read,ACK
1.311736000000000,67,'160' (0xA0),D (0x44),Read,ACK
1.311760000000000,67,'160' (0xA0),I (0x49),Read,ACK
1.311784500000000,67,'160' (0xA0),'254' (0xFE),Read,ACK
1.311808500000000,67,'160' (0xA0),n (0x6E),Read,ACK
1.311833000000000,67,'160' (0xA0),'29' (0x1D),Read,ACK
1.311857000000000,67,'160' (0xA0),'136' (0x88),Read,ACK
1.311881500000000,67,'160' (0xA0),. (0x2E),Read,ACK
1.311905500000000,67,'160' (0xA0),t (0x74),Read,ACK
1.311930000000000,67,'160' (0xA0),'187' (0xBB),Read,ACK
1.311954000000000,67,'160' (0xA0),'182' (0xB6),Read,ACK
1.311978500000000,67,'160' (0xA0),'1' (0x01),Read,ACK
1.312002500000000,67,'160' (0xA0),'145' (0x91),Read,ACK
1.312027000000000,67,'160' (0xA0),'226' (0xE2),Read,ACK
1.312051000000000,67,'160' (0xA0),w (0x77),Read,ACK
1.312075000000000,67,'160' (0xA0),'209' (0xD1),Read,ACK
1.312099500000000,67,'160' (0xA0),'139' (0x8B),Read,ACK
1.312123500000000,67,'160' (0xA0),D (0x44),Read,ACK
1.312148000000000,67,'160' (0xA0),I (0x49),Read,ACK
1.312172000000000,67,'160' (0xA0),'1' (0x01),Read,ACK
1.312196500000000,67,'160' (0xA0),'145' (0x91),Read,ACK
1.312220500000000,67,'160' (0xA0),'226' (0xE2),Read,ACK
1.312245000000000,67,'160' (0xA0),w (0x77),Read,ACK
1.312269000000000,67,'160' (0xA0),'209' (0xD1),Read,ACK
1.312293500000000,67,'160' (0xA0),'139' (0x8B),Read,ACK
1.312317500000000,67,'160' (0xA0),'187' (0xBB),Read,ACK
1.312342000000000,67,'160' (0xA0),'182' (0xB6),Read,ACK
1.312366000000000,67,'160' (0xA0),'254' (0xFE),Read,ACK
1.312390500000000,67,'160' (0xA0),n (0x6E),Read,ACK
1.312414500000000,67,'160' (0xA0),'29' (0x1D),Read,ACK
1.312439000000000,67,'160' (0xA0),'136' (0x88),Read,ACK
1.312463000000000,67,'160' (0xA0),. (0x2E),Read,ACK
1.312487500000000,67,'160' (0xA0),t (0x74),Read,ACK
1.312511500000000,67,'160' (0xA0),D (0x44),Read,ACK
1.312536000000000,67,'160' (0xA0),I (0x49),Read,ACK
1.312560000000000,67,'160' (0xA0),'1' (0x01),Read,ACK
1.312584000000000,67,'160' (0xA0),'145' (0x91),Read,ACK
1.312608500000000,67,'160' (0xA0),'226' (0xE2),Read,ACK
1.312632500000000,67,'160' (0xA0),w (0x77),Read,ACK
1.312657000000000,67,'160' (0xA0),'209' (0xD1),Read,ACK
1.312681000000000,67,'160' (0xA0),'139' (0x8B),Read,ACK
1.312705500000000,67,'160' (0xA0),D (0x44),Read,ACK
1.312729500000000,67,'160' (0xA0),I (0x49),Read,ACK
1.312754000000000,67,'160' (0xA0),'1' (0x01),Read,ACK
1.312778000000000,67,'160' (0xA0),'145' (0x91),Read,ACK
1.312802500000000,67,'160' (0xA0),'226' (0xE2),Read,ACK
1.312826500000000,67,'160' (0xA0),w (0x77),Read,ACK
1.312851000000000,67,'160' (0xA0),. (0x2E),Read,ACK
1.312875000000000,67,'160' (0xA0),t (0x74),Read,ACK
1.312899500000000,67,'160' (0xA0),'187' (0xBB),Read,ACK
1.312923500000000,67,'160' (0xA0),'182' (0xB6),Read,ACK
1.312948000000000,67,'160' (0xA0),'254' (0xFE),Read,ACK
1.312972000000000,67,'160' (0xA0),n (0x6E),Read,ACK
1.312996500000000,67,'160' (0xA0),'29' (0x1D),Read,ACK
1.313020500000000,67,'160' (0xA0),'136' (0x88),Read,ACK
1.313044500000000,67,'160' (0xA0),'209' (0xD1),Read,ACK
1.313069000000000,67,'160' (0xA0),'139' (0x8B),Read,ACK
1.313093000000000,67,'160' (0xA0),D (0x44),Read,ACK
1.313117500000000,67,'160' (0xA0),I (0x49),Read,ACK
1.313141500000000,67,'160' (0xA0),'1' (0x01),Read,ACK
1.313166000000000,67,'160' (0xA0),'145' (0x91),Read,ACK
1.313190000000000,67,'160' (0xA0),'226' (0xE2),Read,ACK
1.313214500000000,67,'160' (0xA0),w (0x77),Read,ACK
1.313238500000000,67,'160' (0xA0),'209' (0xD1),Read,ACK
1.313263000000000,67,'160' (0xA0),'139' (0x8B),Read,ACK
1.313287000000000,67,'160' (0xA0),D (0x44),Read,ACK
1.313311500000000,67,'160' (0xA0),I (0x49),Read,ACK
1.313335500000000,67,'160' (0xA0),'1' (0x01),Read,ACK
1.313360000000000,67,'160' (0xA0),'145' (0x91),Read,ACK
1.313384000000000,67,'160' (0xA0),'29' (0x1D),Read,ACK
1.313408500000000,67,'160' (0xA0),'136' (0x88),Read,ACK
1.313432500000000,67,'160' (0xA0),. (0x2E),Read,ACK
1.313457000000000,67,'160' (0xA0),t (0x74),Read,ACK
1.313481000000000,67,'160' (0xA0),'187' (0xBB),Read,ACK
1.313505500000000,67,'160' (0xA0),'182' (0xB6),Read,ACK
1.313529500000000,67,'160' (0xA0),'254' (0xFE),Read,ACK
1.313553500000000,67,'160' (0xA0),n (0x6E),Read,ACK
1.313578000000000,67,'160' (0xA0),'226' (0xE2),Read,ACK
1.313602000000000,67,'160' (0xA0),w (0x77),Read,ACK
1.313626500000000,67,'160' (0xA0),'209' (0xD1),Read,ACK
1.313650500000000,67,'160' (0xA0),'139' (0x8B),Read,ACK
1.313675000000000,67,'160' (0xA0),D (0x44),Read,ACK
1.313699000000000,67,'160' (0xA0),I (0x49),Read,ACK
1.313723500000000,67,'160' (0xA0),'1' (0x01),Read,ACK
1.313747500000000,67,'160' (0xA0),'145' (0x91),Read,ACK
1.313772000000000,67,'160' (0xA0),'226' (0xE2),Read,ACK
1.313796000000000,67,'160' (0xA0),w (0x77),Read,ACK
1.313820500000000,67,'160' (0xA0),'209' (0xD1),Read,ACK
1.313844500000000,67,'160' (0xA0),'139' (0x8B),Read,ACK
1.313869000000000,67,'160' (0xA0),D (0x44),Read,ACK
1.313893000000000,67,'160' (0xA0),I (0x49),Read,ACK
1.313917500000000,67,'160' (0xA0),'254' (0xFE),Read,ACK
1.313941500000000,67,'160' (0xA0),n (0x6E),Read,ACK
1.313966000000000,67,'160' (0xA0),'29' (0x1D),Read,ACK
1.313990000000000,67,'160' (0xA0),'136' (0x88),Read,ACK
1.314014500000000,67,'160' (0xA0),. (0x2E),Read,ACK
1.314038500000000,67,'160' (0xA0),t (0x74),Read,ACK
1.314062500000000,67,'160' (0xA0),'187' (0xBB),Read,ACK
1.314087000000000,67,'160' (0xA0),'182' (0xB6),Read,ACK
1.314111000000000,67,'160' (0xA0),'1' (0x01),Read,ACK
1.314135500000000,67,'160' (0xA0),'145' (0x91),Read,ACK
1.314159500000000,67,'160' (0xA0),'226' (0xE2),Read,ACK
1.314184000000000,67,'160' (0xA0),w (0x77),Read,ACK
1.314208000000000,67,'160' (0xA0),'209' (0xD1),Read,ACK
1.314232500000000,67,'160' (0xA0),'139' (0x8B),Read,ACK
1.314256500000000,67,'160' (0xA0),D (0x44),Read,ACK
1.314281000000000,67,'160' (0xA0),I (0x49),Read,ACK
1.314305000000000,67,'160' (0xA0),'1' (0x01),Read,ACK
1.314329500000000,67,'160' (0xA0),'145' (0x91),Read,ACK
1.314353500000000,67,'160' (0xA0),'226' (0xE2),Read,ACK
1.314378000000000,67,'160' (0xA0),w (0x77),Read,ACK
1.314402000000000,67,'160' (0xA0),'209' (0xD1),Read,ACK
1.314426500000000,67,'160' (0xA0),'139' (0x8B),Read,ACK
1.314450500000000,67,'160' (0xA0),'187' (0xBB),Read,ACK
1.314475000000000,67,'160' (0xA0),'182' (0xB6),Read,ACK
1.314499000000000,67,'160' (0xA0),'254' (0xFE),Read,ACK
1.314523000000000,67,'160' (0xA0),n (0x6E),Read,ACK
1.314547500000000,67,'160' (0xA0),'29' (0x1D),Read,ACK
1.314571500000000,67,'160' (0xA0),'136' (0x88),Read,ACK
1.314596000000000,67,'160' (0xA0),. (0x2E),Read,ACK
1.314620000000000,67,'160' (0xA0),t (0x74),Read,ACK
1.314644500000000,67,'160' (0xA0),D (0x44),Read,ACK
1.314668500000000,67,'160' (0xA0),I (0x49),Read,ACK
1.314693000000000,67,'160' (0xA0),'1' (0x01),Read,ACK
1.314717000000000,67,'160' (0xA0),'145' (0x91),Read,ACK
1.314741500000000,67,'160' (0xA0),'226' (0xE2),Read,ACK
1.314765500000000,67,'160' (0xA0),w (0x77),Read,ACK
1.314790000000000,67,'160' (0xA0),'209' (0xD1),Read,ACK
1.314814000000000,67,'160' (0xA0),'139' (0x8B),Read,ACK
1.314838500000000,67,'160' (0xA0),D (0x44),Read,ACK
1.314862500000000,67,'160' (0xA0),I (0x49),Read,ACK
1.314887000000000,67,'160' (0xA0),'1' (0x01),Read,ACK
1.314911000000000,67,'160' (0xA0),'145' (0x91),Read,ACK
1.314935500000000,67,'160' (0xA0),'226' (0xE2),Read,ACK
1.314959500000000,67,'160' (0xA0),w (0x77),Read,ACK
1.314984000000000,67,'160' (0xA0),. (0x2E),Read,ACK
1.315008000000000,67,'160' (0xA0),t (0x74),Read,ACK
1.315032000000000,67,'160' (0xA0),'187' (0xBB),Read,ACK
1.315056500000000,67,'160' (0xA0),'182' (0xB6),Read,ACK
1.315080500000000,67,'160' (0xA0),'254' (0xFE),Read,ACK
1.315105000000000,67,'160' (0xA0),n (0x6E),Read,ACK
1.315129000000000,67,'160' (0xA0),'29' (0x1D),Read,ACK
1.315153500000000,67,'160' (0xA0),'136' (0x88),Read,ACK
1.315177500000000,67,'160' (0xA0),'209' (0xD1),Read,ACK
1.315202000000000,67,'160' (0xA0),'139' (0x8B),Read,ACK
1.315226000000000,67,'160' (0xA0),D (0x44),Read,ACK
1.315250500000000,67,'160' (0xA0),I (0x49),Read,ACK
1.315274500000000,67,'160' (0xA0),'1' (0x01),Read,ACK
1.315299000000000,67,'160' (0xA0),'145' (0x91),Read,ACK
1.315323000000000,67,'160' (0xA0),'226' (0xE2),Read,ACK
1.315347500000000,67,'160' (0xA0),w (0x77),Read,ACK
1.315371500000000,67,'160' (0xA0),'255' (0xFF),Read,ACK
1.315396000000000,67,'160' (0xA0),'255' (0xFF),Read,ACK
1.315420000000000,67,'160' (0xA0),'255' (0xFF),Read,ACK
1.315444500000000,67,'160' (0xA0),'255' (0xFF),Read,ACK
1.315468500000000,67,'160' (0xA0),'255' (0xFF),Read,ACK
1.315492500000000,67,'160' (0xA0),'255' (0xFF),Read,ACK
1.315517000000000,67,'160' (0xA0),'255' (0xFF),Read,ACK
1.315541000000000,67,'160' (0xA0),'255' (0xFF),Read,ACK
1.315565500000000,67,'160' (0xA0),'255' (0xFF),Read,ACK
1.315589500000000,67,'160' (0xA0),'255' (0xFF),Read,ACK
1.315614000000000,67,'160' (0xA0),'255' (0xFF),Read,ACK
1.315638000000000,67,'160' (0xA0),'255' (0xFF),Read,ACK
1.315662500000000,67,'160' (0xA0),'255' (0xFF),Read,ACK
1.315686500000000,67,'160' (0xA0),'255' (0xFF),Read,ACK
1.315711000000000,67,'160' (0xA0),'255' (0xFF),Read,ACK
1.315735000000000,67,'160' (0xA0),'255' (0xFF),Read,ACK
1.315759500000000,67,'160' (0xA0),'255' (0xFF),Read,ACK
1.315783500000000,67,'160' (0xA0),'255' (0xFF),Read,ACK
1.315808000000000,67,'160' (0xA0),'255' (0xFF),Read,ACK
1.315832000000000,67,'160' (0xA0),'255' (0xFF),Read,ACK
1.315856500000000,67,'160' (0xA0),'255' (0xFF),Read,ACK
1.315880500000000,67,'160' (0xA0),'255' (0xFF),Read,ACK
1.315905000000000,67,'160' (0xA0),'255' (0xFF),Read,ACK
1.315929000000000,67,'160' (0xA0),'255' (0xFF),Read,ACK
1.315953500000000,67,'160' (0xA0),'255' (0xFF),Read,ACK
1.315977500000000,67,'160' (0xA0),'255' (0xFF),Read,ACK
1.316001500000000,67,'160' (0xA0),'255' (0xFF),Read,ACK
1.316026000000000,67,'160' (0xA0),'255' (0xFF),Read,ACK
1.316050000000000,67,'160' (0xA0),'255' (0xFF),Read,ACK
1.316074500000000,67,'160' (0xA0),'255' (0xFF),Read,ACK
1.316098500000000,67,'160' (0xA0),'255' (0xFF),Read,ACK
1.316123000000000,67,'160' (0xA0),'255' (0xFF),Read,ACK
1.316147000000000,67,'160' (0xA0),'255' (0xFF),Read,ACK
1.316171500000000,67,'160' (0xA0),'255' (0xFF),Read,ACK
1.316195500000000,67,'160' (0xA0),'255' (0xFF),Read,ACK
1.316220000000000,67,'160' (0xA0),'255' (0xFF),Read,ACK
1.316244000000000,67,'160' (0xA0),'255' (0xFF),Read,ACK
1.316268500000000,67,'160' (0xA0),'255' (0xFF),Read,ACK
1.316292500000000,67,'160' (0xA0),'255' (0xFF),Read,ACK
1.316317000000000,67,'160' (0xA0),'255' (0xFF),Read,ACK
1.316341000000000,67,'160' (0xA0),'255' (0xFF),Read,ACK
1.316365500000000,67,'160' (0xA0),'255' (0xFF),Read,ACK
1.316389500000000,67,'160' (0xA0),'255' (0xFF),Read,ACK
1.316414000000000,67,'160' (0xA0),'255' (0xFF),Read,ACK
1.316438000000000,67,'160' (0xA0),'255' (0xFF),Read,ACK
1.316462000000000,67,'160' (0xA0),'255' (0xFF),Read,ACK
1.316486500000000,67,'160' (0xA0),'255' (0xFF),Read,ACK
1.316510500000000,67,'160' (0xA0),'255' (0xFF),Read,ACK
1.316535000000000,67,'160' (0xA0),'255' (0xFF),Read,ACK
1.316559000000000,67,'160' (0xA0),'255' (0xFF),Read,ACK
1.316583500000000,67,'160' (0xA0),'255' (0xFF),Read,ACK
1.316607500000000,67,'160' (0xA0),'255' (0xFF),Read,ACK
1.316632000000000,67,'160' (0xA0),'255' (0xFF),Read,ACK
1.316656000000000,67,'160' (0xA0),'255' (0xFF),Read,ACK
1.316680500000000,67,'160' (0xA0),'255' (0xFF),Read,ACK
1.316704500000000,67,'160' (0xA0),'255' (0xFF),Read,ACK
1.316729000000000,67,'160' (0xA0),'255' (0xFF),Read,ACK
1.316753000000000,67,'160' (0xA0),'255' (0xFF),Read,ACK
1.316777500000000,67,'160' (0xA0),'255' (0xFF),Read,ACK
1.316801500000000,67,'160' (0xA0),'255' (0xFF),Read,ACK
1.316826000000000,67,'160' (0xA0),'255' (0xFF),Read,ACK
1.316850000000000,67,'160' (0xA0),'255' (0xFF),Read,ACK
1.316874500000000,67,'160' (0xA0),'255' (0xFF),Read,ACK
1.316898500000000,67,'160' (0xA0),'255' (0xFF),Read,ACK
1.316923000000000,67,'160' (0xA0),'255' (0xFF),Read,ACK
1.316947000000000,67,'160' (0xA0),'255' (0xFF),Read,ACK
1.316971000000000,67,'160' (0xA0),'255' (0xFF),Read,ACK
1.316995500000000,67,'160' (0xA0),'255' (0xFF),Read,ACK
1.317019500000000,67,'160' (0xA0),'255' (0xFF),Read,ACK
1.317044000000000,67,'160' (0xA0),'255' (0xFF),Read,ACK
1.317068000000000,67,'160' (0xA0),'255' (0xFF),Read,ACK
1.317092500000000,67,'160' (0xA0),'255' (0xFF),Read,ACK
1.317116500000000,67,'160' (0xA0),'255' (0xFF),Read,ACK
1.317141000000000,67,'160' (0xA0),'255' (0xFF),Read,ACK
1.317165000000000,67,'160' (0xA0),'255' (0xFF),Read,ACK
1.317189500000000,67,'160' (0xA0),'255' (0xFF),Read,ACK
1.317213500000000,67,'160' (0xA0),'255' (0xFF),Read,ACK
1.317238000000000,67,'160' (0xA0),'255' (0xFF),Read,ACK
1.317262000000000,67,'160' (0xA0),'255' (0xFF),Read,ACK
1.317286500000000,67,'160' (0xA0),'255' (0xFF),Read,ACK
1.317310500000000,67,'160' (0xA0),'255' (0xFF),Read,ACK
1.317335000000000,67,'160' (0xA0),'255' (0xFF),Read,ACK
1.317359000000000,67,'160' (0xA0),'255' (0xFF),Read,ACK
1.317383500000000,67,'160' (0xA0),'255' (0xFF),Read,ACK
1.317407500000000,67,'160' (0xA0),'255' (0xFF),Read,ACK
1.317431500000000,67,'160' (0xA0),'255' (0xFF),Read,ACK
1.317456000000000,67,'160' (0xA0),'255' (0xFF),Read,ACK
1.317480000000000,67,'160' (0xA0),'255' (0xFF),Read,ACK
1.317504500000000,67,'160' (0xA0),'255' (0xFF),Read,ACK
1.317528500000000,67,'160' (0xA0),'255' (0xFF),Read,ACK
1.317553000000000,67,'160' (0xA0),'255' (0xFF),Read,ACK
1.317577000000000,67,'160' (0xA0),'255' (0xFF),Read,ACK
1.317601500000000,67,'160' (0xA0),'255' (0xFF),Read,ACK
1.317625500000000,67,'160' (0xA0),'255' (0xFF),Read,ACK
1.317650000000000,67,'160' (0xA0),'255' (0xFF),Read,ACK
1.317674000000000,67,'160' (0xA0),'255' (0xFF),Read,ACK
1.317698500000000,67,'160' (0xA0),'255' (0xFF),Read,ACK
1.317722500000000,67,'160' (0xA0),'255' (0xFF),Read,ACK
1.317747000000000,67,'160' (0xA0),'255' (0xFF),Read,ACK
1.317771000000000,67,'160' (0xA0),'255' (0xFF),Read,ACK
1.317795500000000,67,'160' (0xA0),'255' (0xFF),Read,ACK
1.317819500000000,67,'160' (0xA0),'255' (0xFF),Read,ACK
1.317844000000000,67,'160' (0xA0),'255' (0xFF),Read,ACK
1.317868000000000,67,'160' (0xA0),'255' (0xFF),Read,ACK
1.317892500000000,67,'160' (0xA0),'255' (0xFF),Read,ACK
1.317916500000000,67,'160' (0xA0),'255' (0xFF),Read,ACK
1.317940500000000,67,'160' (0xA0),'255' (0xFF),Read,ACK
1.317965000000000,67,'160' (0xA0),'255' (0xFF),Read,ACK
1.317989000000000,67,'160' (0xA0),'255' (0xFF),Read,ACK
1.318013500000000,67,'160' (0xA0),'255' (0xFF),Read,ACK
1.318037500000000,67,'160' (0xA0),'255' (0xFF),Read,ACK
1.318062000000000,67,'160' (0xA0),'255' (0xFF),Read,ACK
1.318086000000000,67,'160' (0xA0),'255' (0xFF),Read,ACK
1.318110500000000,67,'160' (0xA0),'255' (0xFF),Read,ACK
1.318134500000000,67,'160' (0xA0),'255' (0xFF),Read,ACK
1.318159000000000,67,'160' (0xA0),'255' (0xFF),Read,ACK
1.318183000000000,67,'160' (0xA0),'255' (0xFF),Read,ACK
1.318207500000000,67,'160' (0xA0),'255' (0xFF),Read,ACK
1.318231500000000,67,'160' (0xA0),'255' (0xFF),Read,ACK
1.318256000000000,67,'160' (0xA0),'255' (0xFF),Read,ACK
1.318280000000000,67,'160' (0xA0),'255' (0xFF),Read,ACK
1.318304500000000,67,'160' (0xA0),'255' (0xFF),Read,ACK
1.318328500000000,67,'160' (0xA0),'255' (0xFF),Read,ACK
1.318353000000000,67,'160' (0xA0),'255' (0xFF),Read,ACK
1.318377000000000,67,'160' (0xA0),'255' (0xFF),Read,ACK
1.318401000000000,67,'160' (0xA0),'255' (0xFF),Read,ACK
1.318425500000000,67,'160' (0xA0),'255' (0xFF),Read,ACK
1.318449500000000,67,'160' (0xA0),'255' (0xFF),Read,ACK
1.318474000000000,67,'160' (0xA0),'255' (0xFF),Read,ACK
1.318498000000000,67,'160' (0xA0),'255' (0xFF),Read,ACK
1.318522500000000,67,'160' (0xA0),'255' (0xFF),Read,ACK
1.318546500000000,67,'160' (0xA0),'255' (0xFF),Read,ACK
1.318571000000000,67,'160' (0xA0),'255' (0xFF),Read,ACK
1.318595000000000,67,'160' (0xA0),'255' (0xFF),Read,ACK
1.318619500000000,67,'160' (0xA0),'255' (0xFF),Read,ACK
1.318643500000000,67,'160' (0xA0),'255' (0xFF),Read,ACK
1.318668000000000,67,'160' (0xA0),'255' (0xFF),Read,ACK
1.318692000000000,67,'160' (0xA0),'255' (0xFF),Read,ACK
1.318716500000000,67,'160' (0xA0),'255' (0xFF),Read,ACK
1.318740500000000,67,'160' (0xA0),'255' (0xFF),Read,ACK
1.318765000000000,67,'160' (0xA0),'255' (0xFF),Read,ACK
1.318789000000000,67,'160' (0xA0),'255' (0xFF),Read,ACK
1.318813500000000,67,'160' (0xA0),'255' (0xFF),Read,ACK
1.318837500000000,67,'160' (0xA0),'255' (0xFF),Read,ACK
1.318862000000000,67,'160' (0xA0),'255' (0xFF),Read,ACK
1.318886000000000,67,'160' (0xA0),'255' (0xFF),Read,ACK
1.318910000000000,67,'160' (0xA0),'255' (0xFF),Read,ACK
1.318934500000000,67,'160' (0xA0),'255' (0xFF),Read,ACK
1.318958500000000,67,'160' (0xA0),'255' (0xFF),Read,ACK
1.318983000000000,67,'160' (0xA0),'255' (0xFF),Read,ACK
1.319007000000000,67,'160' (0xA0),'255' (0xFF),Read,ACK
1.319031500000000,67,'160' (0xA0),'255' (0xFF),Read,ACK
1.319055500000000,67,'160' (0xA0),'255' (0xFF),Read,ACK
1.319080000000000,67,'160' (0xA0),'255' (0xFF),Read,ACK
1.319104000000000,67,'160' (0xA0),'255' (0xFF),Read,ACK
1.319128500000000,67,'160' (0xA0),'255' (0xFF),Read,ACK
1.319152500000000,67,'160' (0xA0),'255' (0xFF),Read,ACK
1.319177000000000,67,'160' (0xA0),'255' (0xFF),Read,ACK
1.319201000000000,67,'160' (0xA0),'255' (0xFF),Read,ACK
1.319225500000000,67,'160' (0xA0),'255' (0xFF),Read,ACK
1.319249500000000,67,'160' (0xA0),'255' (0xFF),Read,ACK
1.319274000000000,67,'160' (0xA0),'255' (0xFF),Read,ACK
1.319298000000000,67,'160' (0xA0),'255' (0xFF),Read,ACK
1.319322500000000,67,'160' (0xA0),'255' (0xFF),Read,ACK
1.319346500000000,67,'160' (0xA0),'255' (0xFF),Read,ACK
1.319370500000000,67,'160' (0xA0),'255' (0xFF),Read,ACK
1.319395000000000,67,'160' (0xA0),'255' (0xFF),Read,ACK
1.319419000000000,67,'160' (0xA0),'255' (0xFF),Read,ACK
1.319443500000000,67,'160' (0xA0),'255' (0xFF),Read,ACK
1.319467500000000,67,'160' (0xA0),'255' (0xFF),Read,ACK
1.319492000000000,67,'160' (0xA0),'255' (0xFF),Read,ACK
1.319516000000000,67,'160' (0xA0),'255' (0xFF),Read,ACK
1.319540500000000,67,'160' (0xA0),'255' (0xFF),Read,ACK
1.319564500000000,67,'160' (0xA0),'255' (0xFF),Read,ACK
1.319589000000000,67,'160' (0xA0),'255' (0xFF),Read,ACK
1.319613000000000,67,'160' (0xA0),'255' (0xFF),Read,ACK
1.319637500000000,67,'160' (0xA0),'255' (0xFF),Read,ACK
1.319661500000000,67,'160' (0xA0),'255' (0xFF),Read,NAK
1.331347000000000,68,'160' (0xA0),'6' (0x06),Write,ACK
1.331371500000000,68,'160' (0xA0),q (0x71),Write,ACK
1.342145000000000,69,'160' (0xA0),'255' (0xFF),Read,ACK
1.342169500000000,69,'160' (0xA0),'15' (0x0F),Read,ACK
1.342193500000000,69,'160' (0xA0),'7' (0x07),Read,NAK
1.452536000000000,70,L (0x4C),\t (0x09),Read,NAK
1.454466000000000,71,L (0x4C),'0' (0x00),Write,ACK
1.456445000000000,72,v (0x76),'0' (0x00),Write,ACK
1.456469500000000,72,v (0x76),5 (0x35),Write,ACK
1.456494500000000,72,v (0x76),'16' (0x10),Write,ACK
1.456518500000000,72,v (0x76),'8' (0x08),Write,ACK
1.456543000000000,72,v (0x76),'168' (0xA8),Write,ACK
1.456568000000000,72,v (0x76),'4' (0x04),Write,ACK
1.456593500000000,72,v (0x76),4 (0x34),Write,ACK
1.456618000000000,72,v (0x76),'12' (0x0C),Write,ACK
1.456642000000000,72,v (0x76),'6' (0x06),Write,ACK
1.456666500000000,72,v (0x76),'1' (0x01),Write,ACK
1.457543500000000,73,v (0x76),'128' (0x80),Write,ACK
1.457568500000000,73,v (0x76),'128' (0x80),Write,ACK
1.457593500000000,73,v (0x76),'128' (0x80),Write,ACK
1.457617500000000,73,v (0x76),@ (0x40),Write,ACK
1.457642000000000,73,v (0x76),@ (0x40),Write,ACK
1.457667000000000,73,v (0x76),'0' (0x00),Write,ACK
1.457692500000000,73,v (0x76),'0' (0x00),Write,ACK
1.457716500000000,73,v (0x76),'0' (0x00),Write,ACK
1.457741000000000,73,v (0x76),'0' (0x00),Write,ACK
1.457765500000000,73,v (0x76),'0' (0x00),Write,ACK
1.457790000000000,73,v (0x76),'0' (0x00),Write,ACK
1.457814500000000,73,v (0x76),'0' (0x00),Write,ACK
1.457838500000000,73,v (0x76),'0' (0x00),Write,ACK
1.458650500000000,74,v (0x76),'128' (0x80),Write,ACK
1.458675500000000,74,v (0x76),'136' (0x88),Write,ACK
1.458700500000000,74,v (0x76),'128' (0x80),Write,ACK
1.458724500000000,74,v (0x76),H (0x48),Write,ACK
1.458749000000000,74,v (0x76),@ (0x40),Write,ACK
1.458774000000000,74,v (0x76),'0' (0x00),Write,ACK
1.458799500000000,74,v (0x76),'0' (0x00),Write,ACK
1.458824000000000,74,v (0x76),'0' (0x00),Write,ACK
1.458848000000000,74,v (0x76),'0' (0x00),Write,ACK
1.458872500000000,74,v (0x76),'0' (0x00),Write,ACK
1.458896500000000,74,v (0x76),'0' (0x00),Write,ACK
1.458921000000000,74,v (0x76),'0' (0x00),Write,ACK
1.458946000000000,74,v (0x76),'0' (0x00),Write,ACK
1.460114000000000,75,v (0x76),'128' (0x80),Write,ACK
1.460138500000000,75,v (0x76),'145' (0x91),Write,ACK
1.460163500000000,75,v (0x76),@ (0x40),Write,ACK
1.460188000000000,75,v (0x76),'154' (0x9A),Write,ACK
1.460992500000000,76,v (0x76),'128' (0x80),Write,ACK
1.461017000000000,76,v (0x76),'144' (0x90),Write,ACK
1.461042000000000,76,v (0x76),'128' (0x80),Write,ACK
1.461066000000000,76,v (0x76),P (0x50),Write,ACK
1.461090500000000,76,v (0x76),@ (0x40),Write,ACK
1.461115500000000,76,v (0x76),'0' (0x00),Write,ACK
1.461141000000000,76,v (0x76),'0' (0x00),Write,ACK
1.461165500000000,76,v (0x76),'0' (0x00),Write,ACK
1.461189500000000,76,v (0x76),'0' (0x00),Write,ACK
1.461214000000000,76,v (0x76),'0' (0x00),Write,ACK
1.461238500000000,76,v (0x76),'0' (0x00),Write,ACK
1.461263000000000,76,v (0x76),'0' (0x00),Write,ACK
1.461287000000000,76,v (0x76),'0' (0x00),Write,ACK
1.462101000000000,77,v (0x76),'128' (0x80),Write,ACK
1.462125500000000,77,v (0x76),'152' (0x98),Write,ACK
1.462150500000000,77,v (0x76),'128' (0x80),Write,ACK
1.462175000000000,77,v (0x76),X (0x58),Write,ACK
1.462199000000000,77,v (0x76),@ (0x40),Write,ACK
1.462224500000000,77,v (0x76),'0' (0x00),Write,ACK
1.462249500000000,77,v (0x76),'0' (0x00),Write,ACK
1.462274000000000,77,v (0x76),'0' (0x00),Write,ACK
1.462298500000000,77,v (0x76),'0' (0x00),Write,ACK
1.462322500000000,77,v (0x76),'0' (0x00),Write,ACK
1.462347000000000,77,v (0x76),'0' (0x00),Write,ACK
1.462371500000000,77,v (0x76),'0' (0x00),Write,ACK
1.462395500000000,77,v (0x76),'0' (0x00),Write,ACK
1.463208500000000,78,v (0x76),'128' (0x80),Write,ACK
1.463233500000000,78,v (0x76),'160' (0xA0),Write,ACK
1.463258500000000,78,v (0x76),'128' (0x80),Write,ACK
1.463282500000000,78,v (0x76),` (0x60),Write,ACK
1.463307000000000,78,v (0x76),@ (0x40),Write,ACK
1.463332000000000,78,v (0x76),'0' (0x00),Write,ACK
1.463357500000000,78,v (0x76),'0' (0x00),Write,ACK
1.463382000000000,78,v (0x76),'0' (0x00),Write,ACK
1.463406000000000,78,v (0x76),'0' (0x00),Write,ACK
1.463430500000000,78,v (0x76),'0' (0x00),Write,ACK
1.463455000000000,78,v (0x76),'0' (0x00),Write,ACK
1.463480000000000,78,v (0x76),'0' (0x00),Write,ACK
1.463504500000000,78,v (0x76),'0' (0x00),Write,ACK
1.464839000000000,79,v (0x76),'128' (0x80),Write,ACK
1.464864000000000,79,v (0x76),'168' (0xA8),Write,ACK
1.464889000000000,79,v (0x76),'128' (0x80),Write,ACK
1.464913000000000,79,v (0x76),h (0x68),Write,ACK
1.464937500000000,79,v (0x76),@ (0x40),Write,ACK
1.464962500000000,79,v (0x76),'0' (0x00),Write,ACK
1.464988000000000,79,v (0x76),'0' (0x00),Write,ACK
1.465012000000000,79,v (0x76),'0' (0x00),Write,ACK
1.465036500000000,79,v (0x76),'0' (0x00),Write,ACK
1.465061500000000,79,v (0x76),'0' (0x00),Write,ACK
1.465087000000000,79,v (0x76),'0' (0x00),Write,ACK
1.465111500000000,79,v (0x76),'0' (0x00),Write,ACK
1.465136000000000,79,v (0x76),'0' (0x00),Write,ACK
1.465951500000000,80,v (0x76),'128' (0x80),Write,ACK
1.465976500000000,80,v (0x76),'200' (0xC8),Write,ACK
1.466001500000000,80,v (0x76),'128' (0x80),Write,ACK
1.466025500000000,80,v (0x76),H (0x48),Write,ACK
1.466050000000000,80,v (0x76),@ (0x40),Write,ACK
1.466075000000000,80,v (0x76),'0' (0x00),Write,ACK
1.466100500000000,80,v (0x76),'0' (0x00),Write,ACK
1.466125000000000,80,v (0x76),'0' (0x00),Write,ACK
1.466150000000000,80,v (0x76),'0' (0x00),Write,ACK
1.466174000000000,80,v (0x76),'0' (0x00),Write,ACK
1.466199000000000,80,v (0x76),'0' (0x00),Write,ACK
1.466223000000000,80,v (0x76),'0' (0x00),Write,ACK
1.466247500000000,80,v (0x76),'0' (0x00),Write,ACK
1.467060000000000,81,v (0x76),'128' (0x80),Write,ACK
1.467084500000000,81,v (0x76),'208' (0xD0),Write,ACK
1.467109500000000,81,v (0x76),'128' (0x80),Write,ACK
1.467134000000000,81,v (0x76),P (0x50),Write,ACK
1.467158000000000,81,v (0x76),@ (0x40),Write,ACK
1.467183500000000,81,v (0x76),'0' (0x00),Write,ACK
1.467208500000000,81,v (0x76),'0' (0x00),Write,ACK
1.467233000000000,81,v (0x76),'0' (0x00),Write,ACK
1.467257000000000,81,v (0x76),'0' (0x00),Write,ACK
1.467281500000000,81,v (0x76),'0' (0x00),Write,ACK
1.467306000000000,81,v (0x76),'0' (0x00),Write,ACK
1.467330000000000,81,v (0x76),'0' (0x00),Write,ACK
1.467354500000000,81,v (0x76),'0' (0x00),Write,ACK
1.468167000000000,82,v (0x76),'128' (0x80),Write,ACK
1.468192000000000,82,v (0x76),'216' (0xD8),Write,ACK
1.468217000000000,82,v (0x76),'128' (0x80),Write,ACK
1.468241000000000,82,v (0x76),X (0x58),Write,ACK
1.468265500000000,82,v (0x76),@ (0x40),Write,ACK
1.468290500000000,82,v (0x76),'0' (0x00),Write,ACK
1.468316000000000,82,v (0x76),'0' (0x00),Write,ACK
1.468340500000000,82,v (0x76),'0' (0x00),Write,ACK
1.468364500000000,82,v (0x76),'0' (0x00),Write,ACK
1.468389500000000,82,v (0x76),'0' (0x00),Write,ACK
1.468414000000000,82,v (0x76),'0' (0x00),Write,ACK
1.468438500000000,82,v (0x76),'0' (0x00),Write,ACK
1.468462500000000,82,v (0x76),'0' (0x00),Write,ACK
1.469801000000000,83,v (0x76),'128' (0x80),Write,ACK
1.469825500000000,83,v (0x76),'224' (0xE0),Write,ACK
1.469850500000000,83,v (0x76),'128' (0x80),Write,ACK
1.469875000000000,83,v (0x76),` (0x60),Write,ACK
1.469899000000000,83,v (0x76),@ (0x40),Write,ACK
1.469924500000000,83,v (0x76),'0' (0x00),Write,ACK
1.469949500000000,83,v (0x76),'0' (0x00),Write,ACK
1.469974000000000,83,v (0x76),'0' (0x00),Write,ACK
1.469999000000000,83,v (0x76),'0' (0x00),Write,ACK
1.470023000000000,83,v (0x76),'0' (0x00),Write,ACK
1.470047500000000,83,v (0x76),'0' (0x00),Write,ACK
1.470071500000000,83,v (0x76),'0' (0x00),Write,ACK
1.470096000000000,83,v (0x76),'0' (0x00),Write,ACK
1.470870500000000,84,v (0x76),'128' (0x80),Write,ACK
1.470895000000000,84,v (0x76),'143' (0x8F),Write,ACK
1.470920000000000,84,v (0x76),@ (0x40),Write,ACK
1.470944500000000,84,v (0x76),'0' (0x00),Write,ACK
1.471737000000000,85,v (0x76),'128' (0x80),Write,ACK
1.471761500000000,85,v (0x76),'207' (0xCF),Write,ACK
1.471786500000000,85,v (0x76),@ (0x40),Write,ACK
1.471810500000000,85,v (0x76),'1' (0x01),Write,ACK
1.472603000000000,86,v (0x76),'128' (0x80),Write,ACK
1.472627500000000,86,v (0x76),'128' (0x80),Write,ACK
1.472652500000000,86,v (0x76),@ (0x40),Write,ACK
1.472676500000000,86,v (0x76),'2' (0x02),Write,ACK
1.473857500000000,87,v (0x76),'128' (0x80),Write,ACK
1.473882500000000,87,v (0x76),'129' (0x81),Write,ACK
1.473907500000000,87,v (0x76),@ (0x40),Write,ACK
1.473931500000000,87,v (0x76),'3' (0x03),Write,ACK
1.474724000000000,88,v (0x76),'128' (0x80),Write,ACK
1.474748500000000,88,v (0x76),'130' (0x82),Write,ACK
1.474773500000000,88,v (0x76),@ (0x40),Write,ACK
1.474798000000000,88,v (0x76),'4' (0x04),Write,ACK
1.475590500000000,89,v (0x76),'128' (0x80),Write,ACK
1.475615000000000,89,v (0x76),'131' (0x83),Write,ACK
1.475640000000000,89,v (0x76),@ (0x40),Write,ACK
1.475664500000000,89,v (0x76),'5' (0x05),Write,ACK
1.476456500000000,90,v (0x76),'128' (0x80),Write,ACK
1.476481500000000,90,v (0x76),'192' (0xC0),Write,ACK
1.476506500000000,90,v (0x76),@ (0x40),Write,ACK
1.476530500000000,90,v (0x76),\t (0x09),Write,ACK
1.477323000000000,91,v (0x76),'128' (0x80),Write,ACK
1.477347500000000,91,v (0x76),'193' (0xC1),Write,ACK
1.477372500000000,91,v (0x76),@ (0x40),Write,ACK
1.477397000000000,91,v (0x76),\n (0x0A),Write,ACK
1.478533500000000,92,v (0x76),'128' (0x80),Write,ACK
1.478558500000000,92,v (0x76),'194' (0xC2),Write,ACK
1.478583500000000,92,v (0x76),@ (0x40),Write,ACK
1.478607500000000,92,v (0x76),'11' (0x0B),Write,ACK
1.479400000000000,93,v (0x76),'128' (0x80),Write,ACK
1.479424500000000,93,v (0x76),'195' (0xC3),Write,ACK
1.479449500000000,93,v (0x76),@ (0x40),Write,ACK
1.479474000000000,93,v (0x76),'12' (0x0C),Write,ACK
1.481640000000000,94,'160' (0xA0),'6' (0x06),Write,ACK
1.481664500000000,94,'160' (0xA0),'206' (0xCE),Write,ACK
1.483412500000000,95,L (0x4C),'197' (0xC5),Write,ACK
1.492438000000000,96,'160' (0xA0),'0' (0x00),Read,ACK
1.492462500000000,96,'160' (0xA0),'0' (0x00),Read,ACK
1.492486500000000,96,'160' (0xA0),'2' (0x02),Read,ACK
1.492512000000000,96,'160' (0xA0),'0' (0x00),Read,ACK
1.492536000000000,96,'160' (0xA0),'0' (0x00),Read,ACK
1.492560000000000,96,'160' (0xA0),'3' (0x03),Read,NAK
1.494744500000000,97,'160' (0xA0),'6' (0x06),Write,ACK
1.494769000000000,97,'160' (0xA0),'206' (0xCE),Write,ACK
1.505882500000000,98,'160' (0xA0),'0' (0x00),Read,ACK
1.505907000000000,98,'160' (0xA0),'0' (0x00),Read,ACK
1.505931000000000,98,'160' (0xA0),'2' (0x02),Read,ACK
1.505956000000000,98,'160' (0xA0),'0' (0x00),Read,ACK
1.505980500000000,98,'160' (0xA0),'0' (0x00),Read,ACK
1.506004500000000,98,'160' (0xA0),'3' (0x03),Read,NAK
1.506917500000000,99,'160' (0xA0),'6' (0x06),Write,ACK
1.506942500000000,99,'160' (0xA0),p (0x70),Write,ACK
1.512370000000000,100,L (0x4C),'161' (0xA1),Read,NAK
1.513010000000000,101,L (0x4C),'196' (0xC4),Write,ACK
1.517708000000000,102,'160' (0xA0),'175' (0xAF),Read,NAK
1.518619000000000,103,'160' (0xA0),'6' (0x06),Write,ACK
1.518644000000000,103,'160' (0xA0),'206' (0xCE),Write,ACK
1.518669000000000,103,'160' (0xA0),'0' (0x00),Write,ACK
1.518693000000000,103,'160' (0xA0),'0' (0x00),Write,ACK
1.518717500000000,103,'160' (0xA0),'0' (0x00),Write,ACK
1.518741500000000,103,'160' (0xA0),'0' (0x00),Write,ACK
1.518766500000000,103,'160' (0xA0),'0' (0x00),Write,ACK
1.518791000000000,103,'160' (0xA0),'0' (0x00),Write,ACK
1.530187500000000,104,'160' (0xA0),'6' (0x06),Write,ACK
1.530212500000000,104,'160' (0xA0),p (0x70),Write,ACK
1.530237500000000,104,'160' (0xA0),'170' (0xAA),Write,ACK
1.538811500000000,105,L (0x4C),'197' (0xC5),Write,ACK
1.541494500000000,106,'160' (0xA0),'6' (0x06),Write,ACK
1.541519000000000,106,'160' (0xA0),'224' (0xE0),Write,ACK
1.552278500000000,107,'160' (0xA0),'0' (0x00),Read,ACK
1.552303000000000,107,'160' (0xA0),'0' (0x00),Read,ACK
1.552327000000000,107,'160' (0xA0),'0' (0x00),Read,ACK
1.552352000000000,107,'160' (0xA0),'138' (0x8A),Read,ACK
1.552376500000000,107,'160' (0xA0),'0' (0x00),Read,ACK
1.552400500000000,107,'160' (0xA0),'0' (0x00),Read,ACK
1.552425000000000,107,'160' (0xA0),'0' (0x00),Read,ACK
1.552449000000000,107,'160' (0xA0),'0' (0x00),Read,ACK
1.552474000000000,107,'160' (0xA0),'0' (0x00),Read,ACK
1.552498000000000,107,'160' (0xA0),'0' (0x00),Read,ACK
1.552522500000000,107,'160' (0xA0),'0' (0x00),Read,ACK
1.552547000000000,107,'160' (0xA0),'0' (0x00),Read,ACK
1.552572000000000,107,'160' (0xA0),'0' (0x00),Read,ACK
1.552596000000000,107,'160' (0xA0),'0' (0x00),Read,ACK
1.552620500000000,107,'160' (0xA0),'0' (0x00),Read,ACK
1.552644500000000,107,'160' (0xA0),2 (0x32),Read,NAK
1.554604000000000,108,'160' (0xA0),'6' (0x06),Write,ACK
1.554628500000000,108,'160' (0xA0),'212' (0xD4),Write,ACK
1.565771500000000,109,'160' (0xA0),'0' (0x00),Read,ACK
1.565796000000000,109,'160' (0xA0),'0' (0x00),Read,ACK
1.565820000000000,109,'160' (0xA0),\t (0x09),Read,ACK
1.565845000000000,109,'160' (0xA0),'215' (0xD7),Read,ACK
1.565869500000000,109,'160' (0xA0),'0' (0x00),Read,ACK
1.565893500000000,109,'160' (0xA0),'0' (0x00),Read,ACK
1.565918000000000,109,'160' (0xA0),'5' (0x05),Read,ACK
1.565942000000000,109,'160' (0xA0),'238' (0xEE),Read,ACK
1.565967000000000,109,'160' (0xA0),'0' (0x00),Read,ACK
1.565991000000000,109,'160' (0xA0),'0' (0x00),Read,ACK
1.566015500000000,109,'160' (0xA0),& (0x26),Read,ACK
1.566040500000000,109,'160' (0xA0),z (0x7A),Read,NAK
1.568158000000000,110,L (0x4C),'161' (0xA1),Read,NAK
1.568798000000000,111,L (0x4C),'196' (0xC4),Write,ACK
1.570620000000000,112,'160' (0xA0),'6' (0x06),Write,ACK
1.570644500000000,112,'160' (0xA0),'240' (0xF0),Write,ACK
1.581410500000000,113,'160' (0xA0),'0' (0x00),Read,ACK
1.581435000000000,113,'160' (0xA0),'1' (0x01),Read,ACK
1.581459000000000,113,'160' (0xA0),'0' (0x00),Read,ACK
1.581484000000000,113,'160' (0xA0),'0' (0x00),Read,ACK
1.581508500000000,113,'160' (0xA0),'0' (0x00),Read,ACK
1.581532500000000,113,'160' (0xA0),'0' (0x00),Read,ACK
1.581557000000000,113,'160' (0xA0),'0' (0x00),Read,ACK
1.581581000000000,113,'160' (0xA0),'0' (0x00),Read,ACK
1.581605500000000,113,'160' (0xA0),'0' (0x00),Read,ACK
1.581630500000000,113,'160' (0xA0),'1' (0x01),Read,NAK
1.583573500000000,114,'160' (0xA0),'6' (0x06),Write,ACK
1.583598000000000,114,'160' (0xA0),'250' (0xFA),Write,ACK
1.594211000000000,115,L (0x4C),'197' (0xC5),Write,ACK
1.594990500000000,116,'160' (0xA0),'0' (0x00),Read,ACK
1.595015000000000,116,'160' (0xA0),'0' (0x00),Read,ACK
1.595039000000000,116,'160' (0xA0),'0' (0x00),Read,ACK
1.595064000000000,116,'160' (0xA0),'0' (0x00),Read,ACK
1.595088500000000,116,'160' (0xA0),'0' (0x00),Read,ACK
1.595112500000000,116,'160' (0xA0),'0' (0x00),Read,ACK
1.595137000000000,116,'160' (0xA0),'0' (0x00),Read,ACK
1.595161000000000,116,'160' (0xA0),'0' (0x00),Read,ACK
1.595186000000000,116,'160' (0xA0),'0' (0x00),Read,ACK
1.595210000000000,116,'160' (0xA0),'0' (0x00),Read,NAK
1.598111000000000,117,'160' (0xA0),'6' (0x06),Write,ACK
1.598135500000000,117,'160' (0xA0),q (0x71),Write,ACK
1.608911000000000,118,'160' (0xA0),'255' (0xFF),Read,ACK
1.608935000000000,118,'160' (0xA0),'15' (0x0F),Read,ACK
1.608959500000000,118,'160' (0xA0),'7' (0x07),Read,NAK
1.609944000000000,119,'160' (0xA0),'6' (0x06),Write,ACK
1.609969000000000,119,'160' (0xA0),p (0x70),Write,ACK
1.620727500000000,120,'160' (0xA0),'170' (0xAA),Read,NAK
1.621999500000000,121,'160' (0xA0),'6' (0x06),Write,ACK
1.622024000000000,121,'160' (0xA0),q (0x71),Write,ACK
1.622049000000000,121,'160' (0xA0),'255' (0xFF),Write,ACK
1.622073500000000,121,'160' (0xA0),'15' (0x0F),Write,ACK
1.622097500000000,121,'160' (0xA0),'8' (0x08),Write,ACK
1.623527500000000,122,L (0x4C),'161' (0xA1),Read,NAK
1.624173000000000,123,L (0x4C),'196' (0xC4),Write,ACK
1.635448000000000,124,'160' (0xA0),'6' (0x06),Write,ACK
1.635472500000000,124,'160' (0xA0),p (0x70),Write,ACK
1.635497500000000,124,'160' (0xA0),'171' (0xAB),Write,ACK
1.641333500000000,125,L (0x4C),'196' (0xC4),Write,ACK
1.647292000000000,126,'160' (0xA0),'6' (0x06),Write,ACK
1.647316500000000,126,'160' (0xA0),'164' (0xA4),Write,ACK
1.658416000000000,127,'160' (0xA0),'2' (0x02),Read,ACK
1.658440500000000,127,'160' (0xA0),'0' (0x00),Read,ACK
1.658464500000000,127,'160' (0xA0),'12' (0x0C),Read,ACK
1.658490000000000,127,'160' (0xA0),\n (0x0A),Read,ACK
1.658514000000000,127,'160' (0xA0),'2' (0x02),Read,ACK
1.658538500000000,127,'160' (0xA0),'3' (0x03),Read,NAK
1.659455500000000,128,'160' (0xA0),'6' (0x06),Write,ACK
1.659480500000000,128,'160' (0xA0),p (0x70),Write,ACK
1.668075500000000,129,L (0x4C),'193' (0xC1),Write,ACK
1.670245500000000,130,'160' (0xA0),'171' (0xAB),Read,NAK
1.671156500000000,131,'160' (0xA0),'6' (0x06),Write,ACK
1.671181500000000,131,'160' (0xA0),'164' (0xA4),Write,ACK
1.671206500000000,131,'160' (0xA0),'2' (0x02),Write,ACK
1.671230500000000,131,'160' (0xA0),'0' (0x00),Write,ACK
1.671254500000000,131,'160' (0xA0),p (0x70),Write,ACK
1.671279000000000,131,'160' (0xA0),'0' (0x00),Write,ACK
1.671304000000000,131,'160' (0xA0),'0' (0x00),Write,ACK
1.671328500000000,131,'160' (0xA0),'16' (0x10),Write,ACK
1.682705000000000,132,'160' (0xA0),'6' (0x06),Write,ACK
1.682729500000000,132,'160' (0xA0),p (0x70),Write,ACK
1.682754500000000,132,'160' (0xA0),'16' (0x10),Write,ACK
1.697064000000000,133,L (0x4C),'161' (0xA1),Read,NAK
1.697704000000000,134,L (0x4C),'192' (0xC0),Write,ACK
1.723502000000000,135,L (0x4C),'193' (0xC1),Write,ACK
1.752474500000000,136,L (0x4C),'161' (0xA1),Read,NAK
1.753114500000000,137,L (0x4C),'192' (0xC0),Write,ACK
1.778874500000000,138,L (0x4C),'193' (0xC1),Write,ACK
1.807842000000000,139,L (0x4C),'161' (0xA1),Read,NAK
1.808488000000000,140,L (0x4C),'192' (0xC0),Write,ACK
1.826309000000000,141,L (0x4C),'192' (0xC0),Write,ACK
1.846179000000000,142,'160' (0xA0),'11' (0x0B),Write,ACK
1.846204000000000,142,'160' (0xA0),'224' (0xE0),Write,ACK
1.857740000000000,143,'160' (0xA0),1 (0x31),Read,ACK
1.857764500000000,143,'160' (0xA0),1 (0x31),Read,ACK
1.857788500000000,143,'160' (0xA0),2 (0x32),Read,NAK
1.862527500000000,144,'160' (0xA0),'11' (0x0B),Write,ACK
1.862552500000000,144,'160' (0xA0),'152' (0x98),Write,ACK
1.873310000000000,145,'160' (0xA0),'149' (0x95),Read,ACK
1.873334000000000,145,'160' (0xA0),'160' (0xA0),Read,ACK
1.873358500000000,145,'160' (0xA0),'5' (0x05),Read,ACK
1.873383500000000,145,'160' (0xA0),'155' (0x9B),Read,NAK
1.874347500000000,146,'160' (0xA0),'11' (0x0B),Write,ACK
1.874372500000000,146,'160' (0xA0),'144' (0x90),Write,ACK
1.885539500000000,147,'160' (0xA0),'149' (0x95),Read,NAK
1.886432000000000,148,'160' (0xA0),'11' (0x0B),Write,ACK
1.886456500000000,148,'160' (0xA0),'152' (0x98),Write,ACK
1.886481500000000,148,'160' (0xA0),'149' (0x95),Write,ACK
1.886506000000000,148,'160' (0xA0),'160' (0xA0),Write,ACK
1.886530000000000,148,'160' (0xA0),'5' (0x05),Write,ACK
1.886554500000000,148,'160' (0xA0),'155' (0x9B),Write,ACK
1.897504500000000,149,'160' (0xA0),'11' (0x0B),Write,ACK
1.897529000000000,149,'160' (0xA0),'144' (0x90),Write,ACK
1.897554000000000,149,'160' (0xA0),'149' (0x95),Write,ACK
1.910849500000000,150,v (0x76),'128' (0x80),Write,ACK
1.910874500000000,150,v (0x76),'128' (0x80),Write,ACK
1.910899500000000,150,v (0x76),'128' (0x80),Write,ACK
1.910923500000000,150,v (0x76),@ (0x40),Write,ACK
1.910948000000000,150,v (0x76),@ (0x40),Write,ACK
1.910973500000000,150,v (0x76),'0' (0x00),Write,ACK
1.910998000000000,150,v (0x76),'0' (0x00),Write,ACK
1.911022500000000,150,v (0x76),'0' (0x00),Write,ACK
1.911047000000000,150,v (0x76),'0' (0x00),Write,ACK
1.911071500000000,150,v (0x76),'0' (0x00),Write,ACK
1.911097000000000,150,v (0x76),'0' (0x00),Write,ACK
1.911121000000000,150,v (0x76),'0' (0x00),Write,ACK
1.911145500000000,150,v (0x76),'0' (0x00),Write,ACK
1.912183500000000,151,v (0x76),'128' (0x80),Write,ACK
1.912208000000000,151,v (0x76),'136' (0x88),Write,ACK
1.912233000000000,151,v (0x76),'128' (0x80),Write,ACK
1.912257500000000,151,v (0x76),H (0x48),Write,ACK
1.912281500000000,151,v (0x76),@ (0x40),Write,ACK
1.912307000000000,151,v (0x76),'0' (0x00),Write,ACK
1.912332000000000,151,v (0x76),'0' (0x00),Write,ACK
1.912356500000000,151,v (0x76),'0' (0x00),Write,ACK
1.912380500000000,151,v (0x76),'0' (0x00),Write,ACK
1.912405000000000,151,v (0x76),'0' (0x00),Write,ACK
1.912429000000000,151,v (0x76),'0' (0x00),Write,ACK
1.912453500000000,151,v (0x76),'0' (0x00),Write,ACK
1.912477500000000,151,v (0x76),'0' (0x00),Write,ACK
1.939791000000000,152,'160' (0xA0),'11' (0x0B),Write,ACK
1.939816000000000,152,'160' (0xA0),'215' (0xD7),Write,ACK
1.950581500000000,153,'160' (0xA0),'22' (0x16),Read,NAK
1.971890000000000,154,'160' (0xA0),'11' (0x0B),Write,ACK
1.971914500000000,154,'160' (0xA0),'156' (0x9C),Write,ACK
1.982687500000000,155,'160' (0xA0),P (0x50),Read,ACK
1.982711500000000,155,'160' (0xA0),h (0x68),Read,ACK
1.982736000000000,155,'160' (0xA0),i (0x69),Read,ACK
1.982761000000000,155,'160' (0xA0),l (0x6C),Read,ACK
1.982785000000000,155,'160' (0xA0),i (0x69),Read,ACK
1.982809500000000,155,'160' (0xA0),p (0x70),Read,ACK
1.982834000000000,155,'160' (0xA0),s (0x73),Read,ACK
1.982858000000000,155,'160' (0xA0),' ' (0x20),Read,ACK
1.982882500000000,155,'160' (0xA0),' ' (0x20),Read,ACK
1.982907000000000,155,'160' (0xA0),' ' (0x20),Read,ACK
1.982931000000000,155,'160' (0xA0),' ' (0x20),Read,ACK
1.982955500000000,155,'160' (0xA0),' ' (0x20),Read,ACK
1.982980000000000,155,'160' (0xA0),D (0x44),Read,ACK
1.983004500000000,155,'160' (0xA0),U (0x55),Read,ACK
1.983029000000000,155,'160' (0xA0),A (0x41),Read,ACK
1.983054000000000,155,'160' (0xA0),L (0x4C),Read,ACK
1.983078000000000,155,'160' (0xA0),' ' (0x20),Read,ACK
1.983102500000000,155,'160' (0xA0),B (0x42),Read,ACK
1.983126500000000,155,'160' (0xA0),A (0x41),Read,ACK
1.983151000000000,155,'160' (0xA0),N (0x4E),Read,ACK
1.983175000000000,155,'160' (0xA0),D (0x44),Read,ACK
1.983199500000000,155,'160' (0xA0),' ' (0x20),Read,ACK
1.983223500000000,155,'160' (0xA0),' ' (0x20),Read,NAK
1.995032500000000,156,v (0x76),'0' (0x00),Write,ACK
1.995057000000000,156,v (0x76),'12' (0x0C),Write,ACK
1.996583500000000,157,v (0x76),'128' (0x80),Write,ACK
1.996608000000000,157,v (0x76),'132' (0x84),Write,ACK
1.996633000000000,157,v (0x76),@ (0x40),Write,ACK
1.996657500000000,157,v (0x76),'160' (0xA0),Write,ACK
1.996681500000000,157,v (0x76),'160' (0xA0),Write,ACK
1.996707000000000,157,v (0x76),'160' (0xA0),Write,ACK
1.996732000000000,157,v (0x76),'160' (0xA0),Write,ACK
1.996756500000000,157,v (0x76),'160' (0xA0),Write,ACK
1.996780500000000,157,v (0x76),'160' (0xA0),Write,ACK
1.996805500000000,157,v (0x76),'160' (0xA0),Write,ACK
1.996829500000000,157,v (0x76),'160' (0xA0),Write,ACK
1.996854000000000,157,v (0x76),'160' (0xA0),Write,ACK
1.996878500000000,157,v (0x76),'160' (0xA0),Write,ACK
1.996902500000000,157,v (0x76),'160' (0xA0),Write,ACK
1.998351000000000,158,v (0x76),'128' (0x80),Write,ACK
1.998375500000000,158,v (0x76),'196' (0xC4),Write,ACK
1.998400500000000,158,v (0x76),@ (0x40),Write,ACK
1.998425000000000,158,v (0x76),'160' (0xA0),Write,ACK
1.998449000000000,158,v (0x76),'160' (0xA0),Write,ACK
1.998475000000000,158,v (0x76),'160' (0xA0),Write,ACK
1.998499500000000,158,v (0x76),'160' (0xA0),Write,ACK
1.998524000000000,158,v (0x76),'160' (0xA0),Write,ACK
1.998548000000000,158,v (0x76),'160' (0xA0),Write,ACK
1.998573000000000,158,v (0x76),'160' (0xA0),Write,ACK
1.998597500000000,158,v (0x76),'160' (0xA0),Write,ACK
1.998622000000000,158,v (0x76),'160' (0xA0),Write,ACK
1.998646000000000,158,v (0x76),'160' (0xA0),Write,ACK
1.998670500000000,158,v (0x76),'160' (0xA0),Write,ACK
2.000536000000000,159,v (0x76),'128' (0x80),Write,ACK
2.000560500000000,159,v (0x76),'144' (0x90),Write,ACK
2.000585500000000,159,v (0x76),'128' (0x80),Write,ACK
2.000610000000000,159,v (0x76),P (0x50),Write,ACK
2.000634000000000,159,v (0x76),@ (0x40),Write,ACK
2.000660000000000,159,v (0x76),'0' (0x00),Write,ACK
2.000684500000000,159,v (0x76),'0' (0x00),Write,ACK
2.000709000000000,159,v (0x76),'0' (0x00),Write,ACK
2.000733000000000,159,v (0x76),'0' (0x00),Write,ACK
2.000758000000000,159,v (0x76),'0' (0x00),Write,ACK
2.000783000000000,159,v (0x76),'0' (0x00),Write,ACK
2.000807000000000,159,v (0x76),'0' (0x00),Write,ACK
2.000831500000000,159,v (0x76),'0' (0x00),Write,ACK
2.001650000000000,160,v (0x76),'128' (0x80),Write,ACK
2.001675000000000,160,v (0x76),'152' (0x98),Write,ACK
2.001700000000000,160,v (0x76),'128' (0x80),Write,ACK
2.001724000000000,160,v (0x76),X (0x58),Write,ACK
2.001748500000000,160,v (0x76),@ (0x40),Write,ACK
2.001774000000000,160,v (0x76),'0' (0x00),Write,ACK
2.001798500000000,160,v (0x76),'0' (0x00),Write,ACK
2.001823000000000,160,v (0x76),'0' (0x00),Write,ACK
2.001847500000000,160,v (0x76),'0' (0x00),Write,ACK
2.001872000000000,160,v (0x76),'0' (0x00),Write,ACK
2.001896000000000,160,v (0x76),'0' (0x00),Write,ACK
2.001921000000000,160,v (0x76),'0' (0x00),Write,ACK
2.001945000000000,160,v (0x76),'0' (0x00),Write,ACK
2.002757500000000,161,v (0x76),'128' (0x80),Write,ACK
2.002782500000000,161,v (0x76),'160' (0xA0),Write,ACK
2.002807500000000,161,v (0x76),'128' (0x80),Write,ACK
2.002831500000000,161,v (0x76),` (0x60),Write,ACK
2.002856000000000,161,v (0x76),@ (0x40),Write,ACK
2.002881500000000,161,v (0x76),'0' (0x00),Write,ACK
2.002906000000000,161,v (0x76),'0' (0x00),Write,ACK
2.002930500000000,161,v (0x76),'0' (0x00),Write,ACK
2.002955000000000,161,v (0x76),'0' (0x00),Write,ACK
2.002979000000000,161,v (0x76),'0' (0x00),Write,ACK
2.003004000000000,161,v (0x76),'0' (0x00),Write,ACK
2.003028000000000,161,v (0x76),'0' (0x00),Write,ACK
2.003052500000000,161,v (0x76),'0' (0x00),Write,ACK
2.003866000000000,162,v (0x76),'128' (0x80),Write,ACK
2.003890500000000,162,v (0x76),'168' (0xA8),Write,ACK
2.003915500000000,162,v (0x76),'128' (0x80),Write,ACK
2.003940000000000,162,v (0x76),h (0x68),Write,ACK
2.003964000000000,162,v (0x76),@ (0x40),Write,ACK
2.003990000000000,162,v (0x76),'0' (0x00),Write,ACK
2.004014500000000,162,v (0x76),'0' (0x00),Write,ACK
2.004039000000000,162,v (0x76),'0' (0x00),Write,ACK
2.004063000000000,162,v (0x76),'0' (0x00),Write,ACK
2.004088000000000,162,v (0x76),'0' (0x00),Write,ACK
2.004113000000000,162,v (0x76),'0' (0x00),Write,ACK
2.004137500000000,162,v (0x76),'0' (0x00),Write,ACK
2.004161500000000,162,v (0x76),'0' (0x00),Write,ACK
2.004975000000000,163,v (0x76),'128' (0x80),Write,ACK
2.004999500000000,163,v (0x76),'200' (0xC8),Write,ACK
2.005024500000000,163,v (0x76),'128' (0x80),Write,ACK
2.005049000000000,163,v (0x76),H (0x48),Write,ACK
2.005073000000000,163,v (0x76),@ (0x40),Write,ACK
2.005099000000000,163,v (0x76),'0' (0x00),Write,ACK
2.005123500000000,163,v (0x76),'0' (0x00),Write,ACK
2.005148000000000,163,v (0x76),'0' (0x00),Write,ACK
2.005172000000000,163,v (0x76),'0' (0x00),Write,ACK
2.005197000000000,163,v (0x76),'0' (0x00),Write,ACK
2.005221000000000,163,v (0x76),'0' (0x00),Write,ACK
2.005245500000000,163,v (0x76),'0' (0x00),Write,ACK
2.005269500000000,163,v (0x76),'0' (0x00),Write,ACK
2.006083500000000,164,v (0x76),'128' (0x80),Write,ACK
2.006108000000000,164,v (0x76),'208' (0xD0),Write,ACK
2.006133000000000,164,v (0x76),'128' (0x80),Write,ACK
2.006157500000000,164,v (0x76),P (0x50),Write,ACK
2.006181500000000,164,v (0x76),@ (0x40),Write,ACK
2.006207500000000,164,v (0x76),'0' (0x00),Write,ACK
2.006232000000000,164,v (0x76),'0' (0x00),Write,ACK
2.006256500000000,164,v (0x76),'0' (0x00),Write,ACK
2.006280500000000,164,v (0x76),'0' (0x00),Write,ACK
2.006305000000000,164,v (0x76),'0' (0x00),Write,ACK
2.006329000000000,164,v (0x76),'0' (0x00),Write,ACK
2.006354000000000,164,v (0x76),'0' (0x00),Write,ACK
2.006378000000000,164,v (0x76),'0' (0x00),Write,ACK
2.007190500000000,165,v (0x76),'128' (0x80),Write,ACK
2.007215500000000,165,v (0x76),'216' (0xD8),Write,ACK
2.007240500000000,165,v (0x76),'128' (0x80),Write,ACK
2.007264500000000,165,v (0x76),X (0x58),Write,ACK
2.007289000000000,165,v (0x76),@ (0x40),Write,ACK
2.007314500000000,165,v (0x76),'0' (0x00),Write,ACK
2.007339000000000,165,v (0x76),'0' (0x00),Write,ACK
2.007363500000000,165,v (0x76),'0' (0x00),Write,ACK
2.007388500000000,165,v (0x76),'0' (0x00),Write,ACK
2.007412500000000,165,v (0x76),'0' (0x00),Write,ACK
2.007437500000000,165,v (0x76),'0' (0x00),Write,ACK
2.007461500000000,165,v (0x76),'0' (0x00),Write,ACK
2.007486000000000,165,v (0x76),'0' (0x00),Write,ACK
2.008300000000000,166,v (0x76),'128' (0x80),Write,ACK
2.008324500000000,166,v (0x76),'224' (0xE0),Write,ACK
2.008349500000000,166,v (0x76),'128' (0x80),Write,ACK
2.008374000000000,166,v (0x76),` (0x60),Write,ACK
2.008398000000000,166,v (0x76),@ (0x40),Write,ACK
2.008424000000000,166,v (0x76),'0' (0x00),Write,ACK
2.008448500000000,166,v (0x76),'0' (0x00),Write,ACK
2.008473000000000,166,v (0x76),'0' (0x00),Write,ACK
2.008497000000000,166,v (0x76),'0' (0x00),Write,ACK
2.008522500000000,166,v (0x76),'0' (0x00),Write,ACK
2.008546500000000,166,v (0x76),'0' (0x00),Write,ACK
2.008571000000000,166,v (0x76),'0' (0x00),Write,ACK
2.008595000000000,166,v (0x76),'0' (0x00),Write,ACK
2.011312500000000,167,v (0x76),'128' (0x80),Write,ACK
2.011337000000000,167,v (0x76),'144' (0x90),Write,ACK
2.011362000000000,167,v (0x76),'128' (0x80),Write,ACK
2.011386500000000,167,v (0x76),P (0x50),Write,ACK
2.011410500000000,167,v (0x76),@ (0x40),Write,ACK
2.011436500000000,167,v (0x76),'0' (0x00),Write,ACK
2.011461000000000,167,v (0x76),'0' (0x00),Write,ACK
2.011485500000000,167,v (0x76),'0' (0x00),Write,ACK
2.011509500000000,167,v (0x76),'0' (0x00),Write,ACK
2.011534000000000,167,v (0x76),'0' (0x00),Write,ACK
2.011558000000000,167,v (0x76),'0' (0x00),Write,ACK
2.011582500000000,167,v (0x76),'0' (0x00),Write,ACK
2.011607000000000,167,v (0x76),'0' (0x00),Write,ACK
2.012423000000000,168,v (0x76),'128' (0x80),Write,ACK
2.012447500000000,168,v (0x76),'152' (0x98),Write,ACK
2.012472500000000,168,v (0x76),'128' (0x80),Write,ACK
2.012497000000000,168,v (0x76),X (0x58),Write,ACK
2.012521000000000,168,v (0x76),@ (0x40),Write,ACK
2.012547000000000,168,v (0x76),'0' (0x00),Write,ACK
2.012571500000000,168,v (0x76),'0' (0x00),Write,ACK
2.012596000000000,168,v (0x76),'0' (0x00),Write,ACK
2.012620000000000,168,v (0x76),'0' (0x00),Write,ACK
2.012644500000000,168,v (0x76),'0' (0x00),Write,ACK
2.012669500000000,168,v (0x76),'0' (0x00),Write,ACK
2.012694000000000,168,v (0x76),'0' (0x00),Write,ACK
2.012719000000000,168,v (0x76),'0' (0x00),Write,ACK
2.013757500000000,169,v (0x76),'128' (0x80),Write,ACK
2.013782000000000,169,v (0x76),'160' (0xA0),Write,ACK
2.013807000000000,169,v (0x76),'128' (0x80),Write,ACK
2.013831500000000,169,v (0x76),` (0x60),Write,ACK
2.013855500000000,169,v (0x76),@ (0x40),Write,ACK
2.013881000000000,169,v (0x76),'0' (0x00),Write,ACK
2.013906000000000,169,v (0x76),'0' (0x00),Write,ACK
2.013930500000000,169,v (0x76),'0' (0x00),Write,ACK
2.013955000000000,169,v (0x76),'0' (0x00),Write,ACK
2.013979500000000,169,v (0x76),'0' (0x00),Write,ACK
2.014004000000000,169,v (0x76),'0' (0x00),Write,ACK
2.014028500000000,169,v (0x76),'0' (0x00),Write,ACK
2.014052500000000,169,v (0x76),'0' (0x00),Write,ACK
2.014778500000000,170,v (0x76),'128' (0x80),Write,ACK
2.014803000000000,170,v (0x76),'168' (0xA8),Write,ACK
2.014828000000000,170,v (0x76),'128' (0x80),Write,ACK
2.014852500000000,170,v (0x76),h (0x68),Write,ACK
2.014876500000000,170,v (0x76),@ (0x40),Write,ACK
2.014902000000000,170,v (0x76),'0' (0x00),Write,ACK
2.014927000000000,170,v (0x76),'0' (0x00),Write,ACK
2.014951500000000,170,v (0x76),'0' (0x00),Write,ACK
2.014975500000000,170,v (0x76),'0' (0x00),Write,ACK
2.015000500000000,170,v (0x76),'0' (0x00),Write,ACK
2.015025000000000,170,v (0x76),'0' (0x00),Write,ACK
2.015049000000000,170,v (0x76),'0' (0x00),Write,ACK
2.015073500000000,170,v (0x76),'0' (0x00),Write,ACK
2.015798000000000,171,v (0x76),'128' (0x80),Write,ACK
2.015822500000000,171,v (0x76),'200' (0xC8),Write,ACK
2.015847500000000,171,v (0x76),'128' (0x80),Write,ACK
2.015872000000000,171,v (0x76),H (0x48),Write,ACK
2.015896000000000,171,v (0x76),@ (0x40),Write,ACK
2.015922000000000,171,v (0x76),'0' (0x00),Write,ACK
2.015946500000000,171,v (0x76),'0' (0x00),Write,ACK
2.015971000000000,171,v (0x76),'0' (0x00),Write,ACK
2.015995500000000,171,v (0x76),'0' (0x00),Write,ACK
2.016019500000000,171,v (0x76),'0' (0x00),Write,ACK
2.016044000000000,171,v (0x76),'0' (0x00),Write,ACK
2.016068000000000,171,v (0x76),'0' (0x00),Write,ACK
2.016092500000000,171,v (0x76),'0' (0x00),Write,ACK
2.016906000000000,172,v (0x76),'128' (0x80),Write,ACK
2.016930500000000,172,v (0x76),'208' (0xD0),Write,ACK
2.016956000000000,172,v (0x76),'128' (0x80),Write,ACK
2.016980000000000,172,v (0x76),P (0x50),Write,ACK
2.017004000000000,172,v (0x76),@ (0x40),Write,ACK
2.017030000000000,172,v (0x76),'0' (0x00),Write,ACK
2.017054500000000,172,v (0x76),'0' (0x00),Write,ACK
2.017079000000000,172,v (0x76),'0' (0x00),Write,ACK
2.017103500000000,172,v (0x76),'0' (0x00),Write,ACK
2.017127500000000,172,v (0x76),'0' (0x00),Write,ACK
2.017151500000000,172,v (0x76),'0' (0x00),Write,ACK
2.017176000000000,172,v (0x76),'0' (0x00),Write,ACK
2.017200000000000,172,v (0x76),'0' (0x00),Write,ACK
2.018253000000000,173,v (0x76),'128' (0x80),Write,ACK
2.018278000000000,173,v (0x76),'216' (0xD8),Write,ACK
2.018303000000000,173,v (0x76),'128' (0x80),Write,ACK
2.018327000000000,173,v (0x76),X (0x58),Write,ACK
2.018351500000000,173,v (0x76),@ (0x40),Write,ACK
2.018377000000000,173,v (0x76),'0' (0x00),Write,ACK
2.018401500000000,173,v (0x76),'0' (0x00),Write,ACK
2.018426000000000,173,v (0x76),'0' (0x00),Write,ACK
2.018450500000000,173,v (0x76),'0' (0x00),Write,ACK
2.018475000000000,173,v (0x76),'0' (0x00),Write,ACK
2.018500000000000,173,v (0x76),'0' (0x00),Write,ACK
2.018525000000000,173,v (0x76),'0' (0x00),Write,ACK
2.018549000000000,173,v (0x76),'0' (0x00),Write,ACK
2.019361500000000,174,v (0x76),'128' (0x80),Write,ACK
2.019386000000000,174,v (0x76),'224' (0xE0),Write,ACK
2.019411500000000,174,v (0x76),'128' (0x80),Write,ACK
2.019435500000000,174,v (0x76),` (0x60),Write,ACK
2.019459500000000,174,v (0x76),@ (0x40),Write,ACK
2.019485500000000,174,v (0x76),'0' (0x00),Write,ACK
2.019510000000000,174,v (0x76),'0' (0x00),Write,ACK
2.019534500000000,174,v (0x76),'0' (0x00),Write,ACK
2.019560000000000,174,v (0x76),'0' (0x00),Write,ACK
2.019584500000000,174,v (0x76),'0' (0x00),Write,ACK
2.019608500000000,174,v (0x76),'0' (0x00),Write,ACK
2.019633000000000,174,v (0x76),'0' (0x00),Write,ACK
2.019657000000000,174,v (0x76),'0' (0x00),Write,ACK
2.021013000000000,175,v (0x76),'128' (0x80),Write,ACK
2.021037500000000,175,v (0x76),'144' (0x90),Write,ACK
2.021062500000000,175,v (0x76),'128' (0x80),Write,ACK
2.021087000000000,175,v (0x76),P (0x50),Write,ACK
2.021111000000000,175,v (0x76),@ (0x40),Write,ACK
2.021137000000000,175,v (0x76),'0' (0x00),Write,ACK
2.021161500000000,175,v (0x76),'0' (0x00),Write,ACK
2.021186000000000,175,v (0x76),'3' (0x03),Write,ACK
2.021210000000000,175,v (0x76),'5' (0x05),Write,ACK
2.021234500000000,175,v (0x76),'14' (0x0E),Write,ACK
2.021259000000000,175,v (0x76),'11' (0x0B),Write,ACK
2.021283000000000,175,v (0x76),'26' (0x1A),Write,ACK
2.021307500000000,175,v (0x76),'30' (0x1E),Write,ACK
2.022121000000000,176,v (0x76),'128' (0x80),Write,ACK
2.022146000000000,176,v (0x76),'152' (0x98),Write,ACK
2.022171000000000,176,v (0x76),'128' (0x80),Write,ACK
2.022195000000000,176,v (0x76),X (0x58),Write,ACK
2.022219500000000,176,v (0x76),@ (0x40),Write,ACK
2.022245000000000,176,v (0x76),'7' (0x07),Write,ACK
2.022269500000000,176,v (0x76),'29' (0x1D),Write,ACK
2.022294000000000,176,v (0x76),'23' (0x17),Write,ACK
2.022318500000000,176,v (0x76),\t (0x09),Write,ACK
2.022342500000000,176,v (0x76),\t (0x09),Write,ACK
2.022367000000000,176,v (0x76),'31' (0x1F),Write,ACK
2.022391000000000,176,v (0x76),\t (0x09),Write,ACK
2.022417000000000,176,v (0x76),\t (0x09),Write,ACK
2.023324000000000,177,v (0x76),'128' (0x80),Write,ACK
2.023348500000000,177,v (0x76),'160' (0xA0),Write,ACK
2.023373500000000,177,v (0x76),'128' (0x80),Write,ACK
2.023398000000000,177,v (0x76),` (0x60),Write,ACK
2.023422000000000,177,v (0x76),@ (0x40),Write,ACK
2.023448000000000,177,v (0x76),'24' (0x18),Write,ACK
2.023472500000000,177,v (0x76),'14' (0x0E),Write,ACK
2.023497000000000,177,v (0x76),'27' (0x1B),Write,ACK
2.023521000000000,177,v (0x76),'5' (0x05),Write,ACK
2.023546000000000,177,v (0x76),'4' (0x04),Write,ACK
2.023570000000000,177,v (0x76),'31' (0x1F),Write,ACK
2.023594500000000,177,v (0x76),'4' (0x04),Write,ACK
2.023618500000000,177,v (0x76),'4' (0x04),Write,ACK
2.024431500000000,178,v (0x76),'128' (0x80),Write,ACK
2.024456500000000,178,v (0x76),'168' (0xA8),Write,ACK
2.024481500000000,178,v (0x76),'128' (0x80),Write,ACK
2.024505500000000,178,v (0x76),h (0x68),Write,ACK
2.024530000000000,178,v (0x76),@ (0x40),Write,ACK
2.024555500000000,178,v (0x76),'0' (0x00),Write,ACK
2.024580000000000,178,v (0x76),'0' (0x00),Write,ACK
2.024604500000000,178,v (0x76),'16' (0x10),Write,ACK
2.024629000000000,178,v (0x76),'8' (0x08),Write,ACK
2.024653500000000,178,v (0x76),'28' (0x1C),Write,ACK
2.024677500000000,178,v (0x76),'20' (0x14),Write,ACK
2.024702000000000,178,v (0x76),'22' (0x16),Write,ACK
2.024726000000000,178,v (0x76),'30' (0x1E),Write,ACK
2.025539000000000,179,v (0x76),'128' (0x80),Write,ACK
2.025564000000000,179,v (0x76),'200' (0xC8),Write,ACK
2.025589000000000,179,v (0x76),'128' (0x80),Write,ACK
2.025613000000000,179,v (0x76),H (0x48),Write,ACK
2.025637500000000,179,v (0x76),@ (0x40),Write,ACK
2.025663000000000,179,v (0x76),'27' (0x1B),Write,ACK
2.025687500000000,179,v (0x76),'26' (0x1A),Write,ACK
2.025712000000000,179,v (0x76),'15' (0x0F),Write,ACK
2.025737000000000,179,v (0x76),'11' (0x0B),Write,ACK
2.025761000000000,179,v (0x76),'5' (0x05),Write,ACK
2.025785000000000,179,v (0x76),'3' (0x03),Write,ACK
2.025809500000000,179,v (0x76),'0' (0x00),Write,ACK
2.025833500000000,179,v (0x76),'0' (0x00),Write,ACK
2.026647000000000,180,v (0x76),'128' (0x80),Write,ACK
2.026671500000000,180,v (0x76),'208' (0xD0),Write,ACK
2.026696500000000,180,v (0x76),'128' (0x80),Write,ACK
2.026721000000000,180,v (0x76),P (0x50),Write,ACK
2.026745000000000,180,v (0x76),@ (0x40),Write,ACK
2.026770500000000,180,v (0x76),'31' (0x1F),Write,ACK
2.026795500000000,180,v (0x76),\t (0x09),Write,ACK
2.026820000000000,180,v (0x76),\t (0x09),Write,ACK
2.026844000000000,180,v (0x76),'31' (0x1F),Write,ACK
2.026868500000000,180,v (0x76),\t (0x09),Write,ACK
2.026892500000000,180,v (0x76),'23' (0x17),Write,ACK
2.026917000000000,180,v (0x76),'29' (0x1D),Write,ACK
2.026941000000000,180,v (0x76),'7' (0x07),Write,ACK
2.027994500000000,181,v (0x76),'128' (0x80),Write,ACK
2.028019500000000,181,v (0x76),'216' (0xD8),Write,ACK
2.028044500000000,181,v (0x76),'128' (0x80),Write,ACK
2.028068500000000,181,v (0x76),X (0x58),Write,ACK
2.028093000000000,181,v (0x76),@ (0x40),Write,ACK
2.028118500000000,181,v (0x76),'31' (0x1F),Write,ACK
2.028143000000000,181,v (0x76),'4' (0x04),Write,ACK
2.028167500000000,181,v (0x76),'5' (0x05),Write,ACK
2.028192500000000,181,v (0x76),'31' (0x1F),Write,ACK
2.028216500000000,181,v (0x76),'5' (0x05),Write,ACK
2.028241000000000,181,v (0x76),'27' (0x1B),Write,ACK
2.028265000000000,181,v (0x76),'14' (0x0E),Write,ACK
2.028289500000000,181,v (0x76),'24' (0x18),Write,ACK
2.029102500000000,182,v (0x76),'128' (0x80),Write,ACK
2.029127000000000,182,v (0x76),'224' (0xE0),Write,ACK
2.029152000000000,182,v (0x76),'128' (0x80),Write,ACK
2.029176000000000,182,v (0x76),` (0x60),Write,ACK
2.029200500000000,182,v (0x76),@ (0x40),Write,ACK
2.029226000000000,182,v (0x76),'22' (0x16),Write,ACK
2.029251000000000,182,v (0x76),'22' (0x16),Write,ACK
2.029275000000000,182,v (0x76),'28' (0x1C),Write,ACK
2.029299500000000,182,v (0x76),'20' (0x14),Write,ACK
2.029323500000000,182,v (0x76),'8' (0x08),Write,ACK
2.029348000000000,182,v (0x76),'16' (0x10),Write,ACK
2.029372000000000,182,v (0x76),'0' (0x00),Write,ACK
2.029396500000000,182,v (0x76),'0' (0x00),Write,ACK
2.031888000000000,183,v (0x76),'128' (0x80),Write,ACK
2.031913000000000,183,v (0x76),'132' (0x84),Write,ACK
2.031938000000000,183,v (0x76),@ (0x40),Write,ACK
2.031962000000000,183,v (0x76),'208' (0xD0),Write,ACK
2.031986500000000,183,v (0x76),'232' (0xE8),Write,ACK
2.032012000000000,183,v (0x76),'233' (0xE9),Write,ACK
2.032036500000000,183,v (0x76),'236' (0xEC),Write,ACK
2.032061000000000,183,v (0x76),'233' (0xE9),Write,ACK
2.032085500000000,183,v (0x76),'240' (0xF0),Write,ACK
2.032110500000000,183,v (0x76),'243' (0xF3),Write,ACK
2.032135000000000,183,v (0x76),'160' (0xA0),Write,ACK
2.032159500000000,183,v (0x76),'160' (0xA0),Write,ACK
2.032183500000000,183,v (0x76),'160' (0xA0),Write,ACK
2.032208000000000,183,v (0x76),'160' (0xA0),Write,ACK
2.036108000000000,184,v (0x76),'128' (0x80),Write,ACK
2.036132500000000,184,v (0x76),'196' (0xC4),Write,ACK
2.036157500000000,184,v (0x76),@ (0x40),Write,ACK
2.036182000000000,184,v (0x76),'196' (0xC4),Write,ACK
2.036206000000000,184,v (0x76),'213' (0xD5),Write,ACK
2.036232000000000,184,v (0x76),'193' (0xC1),Write,ACK
2.036256500000000,184,v (0x76),'204' (0xCC),Write,ACK
2.036281000000000,184,v (0x76),'160' (0xA0),Write,ACK
2.036305000000000,184,v (0x76),'194' (0xC2),Write,ACK
2.036330000000000,184,v (0x76),'193' (0xC1),Write,ACK
2.036355000000000,184,v (0x76),'206' (0xCE),Write,ACK
2.036379000000000,184,v (0x76),'196' (0xC4),Write,ACK
2.036403500000000,184,v (0x76),'160' (0xA0),Write,ACK
2.036427500000000,184,v (0x76),'160' (0xA0),Write,ACK
